time	V(in)	V(out)
0.000000000000000e+00	-4.015762e+00	4.999011e+00
3.047756794185292e-04	-4.072895e+00	4.418586e+00
6.095513588370583e-04	-4.127119e+00	3.867715e+00
9.143270382555874e-04	-4.178434e+00	3.346399e+00
1.219102717674117e-03	-4.226840e+00	2.854638e+00
1.523878397092646e-03	-4.272336e+00	2.392432e+00
1.828654076511175e-03	-4.314924e+00	1.959780e+00
2.133429755929703e-03	-4.354602e+00	1.556684e+00
2.455695380929703e-03	-4.394460e+00	1.151767e+00
2.670539130929703e-03	-4.419654e+00	8.958120e-01
2.885382880929703e-03	-4.443800e+00	6.505066e-01
3.100226630929702e-03	-4.466942e+00	4.154076e-01
3.207648505929702e-03	-4.478149e+00	3.015520e-01
3.315070380929702e-03	-4.489121e+00	1.900902e-01
3.422492255929702e-03	-4.499862e+00	8.097183e-02
3.529914130929702e-03	-4.510377e+00	-2.585241e-02
3.637336005929702e-03	-4.520671e+00	-1.304307e-01
3.744757880929702e-03	-4.530748e+00	-2.328104e-01
3.852179755929701e-03	-4.540614e+00	-3.330376e-01
4.067023505929702e-03	-4.559728e+00	-5.272145e-01
4.281867255929703e-03	-4.578046e+00	-7.133124e-01
4.604132880929704e-03	-4.604105e+00	-9.780426e-01
4.926398505929705e-03	-4.628553e+00	-1.226424e+00
5.325394041643992e-03	-4.656381e+00	-1.509133e+00
5.724389577358279e-03	-4.682441e+00	-1.773880e+00
6.123385113072565e-03	-4.706733e+00	-2.020665e+00
6.522380648786853e-03	-4.729257e+00	-2.249489e+00
6.921376184501140e-03	-4.750013e+00	-2.460351e+00
7.320371720215426e-03	-4.769001e+00	-2.653251e+00
7.719367255929713e-03	-4.786221e+00	-2.828189e+00
8.179746720215425e-03	-4.804521e+00	-3.014100e+00
8.640126184501138e-03	-4.821519e+00	-3.186789e+00
9.100505648786849e-03	-4.837216e+00	-3.346256e+00
9.560885113072562e-03	-4.851611e+00	-3.492501e+00
1.002126457735827e-02	-4.864705e+00	-3.625524e+00
1.048164404164399e-02	-4.876498e+00	-3.745325e+00
1.094202350592970e-02	-4.886989e+00	-3.851903e+00
1.140240297021541e-02	-4.896663e+00	-3.950183e+00
1.186278243450112e-02	-4.905649e+00	-4.041472e+00
1.232316189878683e-02	-4.913947e+00	-4.125772e+00
1.278354136307255e-02	-4.921557e+00	-4.203083e+00
1.324392082735826e-02	-4.928478e+00	-4.273403e+00
1.370430029164397e-02	-4.934712e+00	-4.336734e+00
1.416467975592968e-02	-4.940258e+00	-4.393075e+00
1.462505922021539e-02	-4.945372e+00	-4.445029e+00
1.508543868450110e-02	-4.950122e+00	-4.493288e+00
1.554581814878682e-02	-4.954509e+00	-4.537852e+00
1.600619761307253e-02	-4.958532e+00	-4.578721e+00
1.646657707735824e-02	-4.962191e+00	-4.615895e+00
1.692695654164395e-02	-4.965487e+00	-4.649374e+00
1.738733600592966e-02	-4.968419e+00	-4.679158e+00
1.784771547021537e-02	-4.971122e+00	-4.706623e+00
1.830809493450109e-02	-4.973633e+00	-4.732134e+00
1.876847439878680e-02	-4.975952e+00	-4.755692e+00
1.922885386307251e-02	-4.978079e+00	-4.777297e+00
1.968923332735822e-02	-4.980013e+00	-4.796949e+00
2.014961279164394e-02	-4.981755e+00	-4.814647e+00
2.060999225592965e-02	-4.983305e+00	-4.830391e+00
2.107037172021536e-02	-4.984734e+00	-4.844910e+00
2.153075118450107e-02	-4.986062e+00	-4.858397e+00
2.199113064878678e-02	-4.987287e+00	-4.870850e+00
2.245151011307249e-02	-4.988411e+00	-4.882271e+00
2.291188957735821e-02	-4.989434e+00	-4.892660e+00
2.337226904164392e-02	-4.990355e+00	-4.902016e+00
2.383264850592963e-02	-4.991174e+00	-4.910339e+00
2.429302797021534e-02	-4.991930e+00	-4.918014e+00
2.475340743450105e-02	-4.992632e+00	-4.925143e+00
2.521378689878677e-02	-4.993280e+00	-4.931727e+00
2.567416636307248e-02	-4.993874e+00	-4.937765e+00
2.613454582735819e-02	-4.994415e+00	-4.943256e+00
2.659492529164390e-02	-4.994902e+00	-4.948202e+00
2.705530475592961e-02	-4.995335e+00	-4.952602e+00
2.750000000000000e-02	-4.995728e+00	-4.956593e+00
2.750100000000000e-02	4.020034e+00	-4.955603e+00
2.781012366071439e-02	4.077695e+00	-4.369825e+00
2.811924732142877e-02	4.132384e+00	-3.814232e+00
2.842837098214315e-02	4.184101e+00	-3.288823e+00
2.873749464285753e-02	4.232848e+00	-2.793599e+00
2.904661830357192e-02	4.278623e+00	-2.328560e+00
2.935574196428630e-02	4.321428e+00	-1.893705e+00
2.966486562500068e-02	4.361261e+00	-1.489035e+00
2.998713125000068e-02	4.400707e+00	-1.088296e+00
3.020197500000068e-02	4.425642e+00	-8.349822e-01
3.041681875000068e-02	4.449539e+00	-5.922077e-01
3.052424062500068e-02	4.461112e+00	-4.746350e-01
3.063166250000068e-02	4.472442e+00	-3.595343e-01
3.073908437500068e-02	4.483533e+00	-2.468534e-01
3.084650625000068e-02	4.494392e+00	-1.365416e-01
3.095392812500068e-02	4.505022e+00	-2.854907e-02
3.106135000000067e-02	4.515429e+00	7.717301e-02
3.116877187500067e-02	4.525616e+00	1.806724e-01
3.127619375000067e-02	4.535590e+00	2.819957e-01
3.138361562500067e-02	4.545354e+00	3.811888e-01
3.159845937500067e-02	4.564270e+00	5.733624e-01
3.181330312500067e-02	4.582399e+00	7.575402e-01
3.213556875000067e-02	4.608189e+00	1.019539e+00
3.245783437500067e-02	4.632386e+00	1.265358e+00
3.285682991071495e-02	4.659927e+00	1.545150e+00
3.325582544642924e-02	4.685718e+00	1.807165e+00
3.365482098214352e-02	4.709759e+00	2.051405e+00
3.405381651785780e-02	4.732051e+00	2.277867e+00
3.445281205357208e-02	4.752592e+00	2.486554e+00
3.485180758928637e-02	4.771384e+00	2.677463e+00
3.525080312500065e-02	4.788426e+00	2.850597e+00
3.571118258928636e-02	4.806537e+00	3.034590e+00
3.617156205357207e-02	4.823361e+00	3.205497e+00
3.663194151785779e-02	4.838895e+00	3.363319e+00
3.709232098214350e-02	4.853142e+00	3.508055e+00
3.755270044642921e-02	4.866101e+00	3.639705e+00
3.801307991071493e-02	4.877772e+00	3.758270e+00
3.847345937500064e-02	4.888155e+00	3.863749e+00
3.893383883928635e-02	4.897729e+00	3.961014e+00
3.939421830357206e-02	4.906622e+00	4.051362e+00
3.985459776785777e-02	4.914835e+00	4.134792e+00
4.031497723214349e-02	4.922366e+00	4.211305e+00
4.077535669642920e-02	4.929216e+00	4.280900e+00
4.123573616071491e-02	4.935386e+00	4.343577e+00
4.169611562500062e-02	4.940875e+00	4.399337e+00
4.215649508928633e-02	4.945936e+00	4.450755e+00
4.261687455357204e-02	4.950637e+00	4.498516e+00
4.307725401785775e-02	4.954978e+00	4.542620e+00
4.353763348214347e-02	4.958960e+00	4.583068e+00
4.399801294642918e-02	4.962581e+00	4.619858e+00
4.445839241071489e-02	4.965843e+00	4.652992e+00
4.491877187500060e-02	4.968744e+00	4.682468e+00
4.537915133928631e-02	4.971420e+00	4.709650e+00
4.583953080357202e-02	4.973905e+00	4.734898e+00
4.629991026785774e-02	4.976200e+00	4.758213e+00
4.676028973214345e-02	4.978305e+00	4.779595e+00
4.722066919642916e-02	4.980219e+00	4.799043e+00
4.768104866071488e-02	4.981943e+00	4.816559e+00
4.814142812500059e-02	4.983477e+00	4.832141e+00
4.860180758928630e-02	4.984892e+00	4.846510e+00
4.906218705357201e-02	4.986205e+00	4.859858e+00
4.952256651785772e-02	4.987419e+00	4.872183e+00
4.998294598214344e-02	4.988531e+00	4.883486e+00
5.044332544642915e-02	4.989543e+00	4.893767e+00
5.090370491071486e-02	4.990455e+00	4.903027e+00
5.136408437500057e-02	4.991265e+00	4.911264e+00
5.182446383928628e-02	4.992013e+00	4.918860e+00
5.228484330357199e-02	4.992708e+00	4.925916e+00
5.274522276785770e-02	4.993349e+00	4.932431e+00
5.320560223214342e-02	4.993937e+00	4.938406e+00
5.366598169642913e-02	4.994472e+00	4.943842e+00
5.412636116071484e-02	4.994954e+00	4.948736e+00
5.458674062500055e-02	4.995383e+00	4.953091e+00
5.499900000000000e-02	4.995744e+00	4.956764e+00
5.500000000000000e-02	-4.020018e+00	4.955774e+00
5.530912366071438e-02	-4.077679e+00	4.369986e+00
5.561824732142877e-02	-4.132369e+00	3.814383e+00
5.592737098214315e-02	-4.184088e+00	3.288966e+00
5.623649464285753e-02	-4.232835e+00	2.793733e+00
5.654561830357191e-02	-4.278611e+00	2.328686e+00
5.685474196428630e-02	-4.321416e+00	1.893824e+00
5.716386562500068e-02	-4.361250e+00	1.489147e+00
5.748613125000068e-02	-4.400697e+00	1.088401e+00
5.770097500000067e-02	-4.425632e+00	8.350825e-01
5.791581875000067e-02	-4.449530e+00	5.923039e-01
5.802324062500067e-02	-4.461103e+00	4.747292e-01
5.813066250000067e-02	-4.472433e+00	3.596265e-01
5.823808437500067e-02	-4.483525e+00	2.469437e-01
5.834550625000067e-02	-4.494383e+00	1.366300e-01
5.845292812500067e-02	-4.505013e+00	2.863560e-02
5.856035000000067e-02	-4.515420e+00	-7.708830e-02
5.866777187500067e-02	-4.525608e+00	-1.805894e-01
5.877519375000067e-02	-4.535582e+00	-2.819145e-01
5.888261562500067e-02	-4.545346e+00	-3.811093e-01
5.909745937500067e-02	-4.564263e+00	-5.732862e-01
5.931230312500067e-02	-4.582392e+00	-7.574672e-01
5.963456875000066e-02	-4.608182e+00	-1.019470e+00
5.995683437500066e-02	-4.632380e+00	-1.265293e+00
6.035582991071495e-02	-4.659921e+00	-1.545090e+00
6.075482544642923e-02	-4.685712e+00	-1.807110e+00
6.115382098214352e-02	-4.709754e+00	-2.051354e+00
6.155281651785780e-02	-4.732046e+00	-2.277820e+00
6.195181205357209e-02	-4.752588e+00	-2.486510e+00
6.235080758928637e-02	-4.771381e+00	-2.677423e+00
6.274980312500066e-02	-4.788423e+00	-2.850560e+00
6.321018258928637e-02	-4.806535e+00	-3.034556e+00
6.367056205357208e-02	-4.823358e+00	-3.205466e+00
6.413094151785780e-02	-4.838893e+00	-3.363291e+00
6.459132098214350e-02	-4.853140e+00	-3.508029e+00
6.505170044642922e-02	-4.866099e+00	-3.639682e+00
6.551207991071492e-02	-4.877770e+00	-3.758249e+00
6.597245937500064e-02	-4.888153e+00	-3.863729e+00
6.643283883928636e-02	-4.897727e+00	-3.960997e+00
6.689321830357206e-02	-4.906621e+00	-4.051346e+00
6.735359776785778e-02	-4.914833e+00	-4.134778e+00
6.781397723214348e-02	-4.922365e+00	-4.211291e+00
6.827435669642920e-02	-4.929215e+00	-4.280888e+00
6.873473616071490e-02	-4.935385e+00	-4.343566e+00
6.919511562500062e-02	-4.940874e+00	-4.399327e+00
6.965549508928634e-02	-4.945935e+00	-4.450746e+00
7.011587455357204e-02	-4.950636e+00	-4.498507e+00
7.057625401785776e-02	-4.954978e+00	-4.542612e+00
7.103663348214347e-02	-4.958959e+00	-4.583060e+00
7.149701294642918e-02	-4.962581e+00	-4.619851e+00
7.195739241071489e-02	-4.965842e+00	-4.652986e+00
7.241777187500061e-02	-4.968744e+00	-4.682463e+00
7.287815133928632e-02	-4.971419e+00	-4.709645e+00
7.333853080357203e-02	-4.973905e+00	-4.734893e+00
7.379891026785775e-02	-4.976200e+00	-4.758209e+00
7.425928973214345e-02	-4.978304e+00	-4.779591e+00
7.471966919642917e-02	-4.980219e+00	-4.799040e+00
7.518004866071487e-02	-4.981943e+00	-4.816556e+00
7.564042812500059e-02	-4.983477e+00	-4.832139e+00
7.610080758928631e-02	-4.984891e+00	-4.846508e+00
7.656118705357201e-02	-4.986205e+00	-4.859855e+00
7.702156651785773e-02	-4.987418e+00	-4.872180e+00
7.748194598214343e-02	-4.988531e+00	-4.883484e+00
7.794232544642915e-02	-4.989543e+00	-4.893765e+00
7.840270491071485e-02	-4.990454e+00	-4.903025e+00
7.886308437500057e-02	-4.991265e+00	-4.911263e+00
7.932346383928629e-02	-4.992013e+00	-4.918859e+00
7.978384330357199e-02	-4.992707e+00	-4.925915e+00
8.024422276785771e-02	-4.993349e+00	-4.932430e+00
8.070460223214342e-02	-4.993937e+00	-4.938406e+00
8.116498169642913e-02	-4.994472e+00	-4.943841e+00
8.162536116071484e-02	-4.994954e+00	-4.948736e+00
8.208574062500056e-02	-4.995382e+00	-4.953090e+00
8.250000000000000e-02	-4.995746e+00	-4.956781e+00
8.250100000000000e-02	4.020016e+00	-4.955791e+00
8.281012366071398e-02	4.077677e+00	-4.370002e+00
8.311924732142796e-02	4.132367e+00	-3.814398e+00
8.342837098214194e-02	4.184086e+00	-3.288979e+00
8.373749464285590e-02	4.232834e+00	-2.793746e+00
8.404661830356988e-02	4.278610e+00	-2.328698e+00
8.435574196428386e-02	4.321415e+00	-1.893835e+00
8.466486562499784e-02	4.361249e+00	-1.489158e+00
8.498713124999784e-02	4.400696e+00	-1.088411e+00
8.520197499999783e-02	4.425631e+00	-8.350921e-01
8.541681874999783e-02	4.449529e+00	-5.923131e-01
8.552424062499783e-02	4.461102e+00	-4.747382e-01
8.563166249999783e-02	4.472432e+00	-3.596353e-01
8.573908437499783e-02	4.483524e+00	-2.469523e-01
8.584650624999783e-02	4.494382e+00	-1.366384e-01
8.595392812499783e-02	4.505013e+00	-2.864386e-02
8.606134999999783e-02	4.515419e+00	7.708022e-02
8.616877187499783e-02	4.525608e+00	1.805815e-01
8.627619374999783e-02	4.535581e+00	2.819068e-01
8.638361562499783e-02	4.545345e+00	3.811017e-01
8.659845937499783e-02	4.564262e+00	5.732789e-01
8.681330312499783e-02	4.582392e+00	7.574602e-01
8.713556874999782e-02	4.608181e+00	1.019464e+00
8.745783437499782e-02	4.632379e+00	1.265287e+00
8.785682991071210e-02	4.659920e+00	1.545085e+00
8.825582544642639e-02	4.685712e+00	1.807105e+00
8.865482098214067e-02	4.709754e+00	2.051349e+00
8.905381651785496e-02	4.732046e+00	2.277816e+00
8.945281205356924e-02	4.752588e+00	2.486506e+00
8.985180758928353e-02	4.771380e+00	2.677420e+00
9.025080312499781e-02	4.788423e+00	2.850556e+00
9.071118258928353e-02	4.806534e+00	3.034553e+00
9.117156205356923e-02	4.823357e+00	3.205463e+00
9.163194151785495e-02	4.838893e+00	3.363288e+00
9.209232098214065e-02	4.853140e+00	3.508027e+00
9.255270044642637e-02	4.866099e+00	3.639680e+00
9.301307991071209e-02	4.877770e+00	3.758247e+00
9.347345937499779e-02	4.888153e+00	3.863728e+00
9.393383883928351e-02	4.897727e+00	3.960995e+00
9.439421830356921e-02	4.906621e+00	4.051344e+00
9.485459776785493e-02	4.914833e+00	4.134776e+00
9.531497723214064e-02	4.922365e+00	4.211290e+00
9.577535669642635e-02	4.929215e+00	4.280886e+00
9.623573616071207e-02	4.935385e+00	4.343565e+00
9.669611562499777e-02	4.940874e+00	4.399326e+00
9.715649508928349e-02	4.945935e+00	4.450745e+00
9.761687455356920e-02	4.950636e+00	4.498507e+00
9.807725401785491e-02	4.954977e+00	4.542612e+00
9.853763348214062e-02	4.958959e+00	4.583060e+00
9.899801294642634e-02	4.962580e+00	4.619851e+00
9.945839241071205e-02	4.965842e+00	4.652985e+00
9.991877187499776e-02	4.968744e+00	4.682462e+00
1.003791513392835e-01	4.971419e+00	4.709644e+00
1.008395308035692e-01	4.973905e+00	4.734893e+00
1.012999102678549e-01	4.976200e+00	4.758208e+00
1.017602897321406e-01	4.978304e+00	4.779591e+00
1.022206691964263e-01	4.980219e+00	4.799040e+00
1.026810486607120e-01	4.981943e+00	4.816556e+00
1.031414281249977e-01	4.983477e+00	4.832138e+00
1.032641959821406e-01	4.983873e+00	4.836160e+00
1.033869638392835e-01	4.984260e+00	4.840091e+00
1.035097316964263e-01	4.984638e+00	4.843930e+00
1.036324995535692e-01	4.985007e+00	4.847679e+00
1.037552674107120e-01	4.985367e+00	4.851337e+00
1.038780352678549e-01	4.985718e+00	4.854904e+00
1.040008031249977e-01	4.986060e+00	4.858379e+00
1.044611825892835e-01	4.987253e+00	4.870502e+00
1.049215620535692e-01	4.988362e+00	4.881763e+00
1.053819415178549e-01	4.989385e+00	4.892162e+00
1.058423209821406e-01	4.990324e+00	4.901698e+00
1.063027004464263e-01	4.991178e+00	4.910372e+00
1.067630799107120e-01	4.991947e+00	4.918184e+00
1.072234593749977e-01	4.992630e+00	4.925134e+00
1.076199651785695e-01	4.993179e+00	4.930710e+00
1.080164709821412e-01	4.993694e+00	4.935934e+00
1.084129767857130e-01	4.994173e+00	4.940805e+00
1.088094825892847e-01	4.994618e+00	4.945323e+00
1.092059883928565e-01	4.995028e+00	4.949489e+00
1.096024941964282e-01	4.995404e+00	4.953303e+00
1.099990000000000e-01	4.995744e+00	4.956764e+00
