time	V(ch1)	V(ch2)
Step Information: Rl=10  (Step: 1/46)
0.000000000000000e+00	1.256345e-02	8.253320e-12
7.045103241350922e-07	2.141594e-02	2.725968e-11
1.455988003212524e-06	3.085823e-02	6.423285e-11
2.958943361367387e-06	4.974163e-02	2.080938e-10
5.274243983873661e-06	7.882826e-02	6.862736e-10
7.679385033279845e-06	1.090392e-01	1.650696e-09
1.058137205853145e-05	1.454846e-01	3.760779e-09
1.400230532485519e-05	1.884378e-01	8.262258e-09
1.799971661368624e-05	2.386151e-01	1.798012e-08
2.241246227458143e-05	2.939862e-01	3.829271e-08
2.719013053023580e-05	3.539106e-01	8.109180e-08
3.218196418348185e-05	4.164889e-01	1.701509e-07
3.734414265749209e-05	4.811619e-01	3.571215e-07
4.259047883314186e-05	5.468369e-01	7.478014e-07
4.790580616773239e-05	6.133035e-01	1.568553e-06
5.325309181291992e-05	6.800613e-01	3.287769e-06
5.863589843292513e-05	7.470821e-01	6.896127e-06
6.404875674501430e-05	8.141544e-01	1.444485e-05
6.951703967373209e-05	8.813122e-01	3.020668e-05
7.508111453859193e-05	9.485291e-01	6.289739e-05
8.083951365499597e-05	1.016103e+00	1.302323e-04
8.696919037621478e-05	1.084811e+00	2.676266e-04
9.383446383038694e-05	1.157081e+00	5.490512e-04
1.020929303083978e-04	1.237864e+00	1.139324e-03
1.130521570740776e-04	1.337364e+00	2.454245e-03
1.296540676875834e-04	1.478145e+00	5.732873e-03
1.533318828982102e-04	1.668485e+00	1.304867e-02
1.885823212643936e-04	1.941249e+00	2.888219e-02
2.471760712643935e-04	2.380056e+00	6.451058e-02
3.057698212643935e-04	2.804991e+00	1.073811e-01
3.643635712643935e-04	3.215719e+00	1.536309e-01
4.229573212643935e-04	3.610144e+00	2.009595e-01
4.815510712643935e-04	3.986564e+00	2.479810e-01
5.401448212643935e-04	4.343072e+00	2.938061e-01
5.987385712643935e-04	4.677818e+00	3.378349e-01
6.573323212643935e-04	4.989069e+00	3.796317e-01
7.159260712643936e-04	5.275209e+00	4.188564e-01
7.745198212643936e-04	5.534747e+00	4.552288e-01
8.331135712643937e-04	5.766323e+00	4.885102e-01
8.917073212643937e-04	5.968719e+00	5.184934e-01
9.503010712643938e-04	6.140868e+00	5.449979e-01
1.008894821264394e-03	6.281857e+00	5.678676e-01
1.067488571264394e-03	6.390940e+00	5.869695e-01
1.126082321264394e-03	6.467533e+00	6.021935e-01
1.184676071264394e-03	6.511227e+00	6.134524e-01
1.243269821264394e-03	6.521786e+00	6.206818e-01
1.301863571264394e-03	6.499149e+00	6.238402e-01
1.360457321264394e-03	6.443429e+00	6.229092e-01
1.419051071264394e-03	6.354915e+00	6.178938e-01
1.477644821264394e-03	6.234068e+00	6.088217e-01
1.536238571264394e-03	6.081520e+00	5.957440e-01
1.594832321264394e-03	5.898065e+00	5.787344e-01
1.653426071264395e-03	5.684659e+00	5.578893e-01
1.712019821264395e-03	5.442407e+00	5.333273e-01
1.770613571264395e-03	5.172558e+00	5.051895e-01
1.829207321264395e-03	4.876492e+00	4.736385e-01
1.887801071264395e-03	4.555701e+00	4.388594e-01
1.946394821264395e-03	4.211771e+00	4.010596e-01
2.004988571264394e-03	3.846347e+00	3.604706e-01
2.063582321264394e-03	3.461076e+00	3.173515e-01
2.122176071264394e-03	3.057498e+00	2.719965e-01
2.180769821264395e-03	2.636805e+00	2.247540e-01
2.239363571264395e-03	2.199135e+00	1.760778e-01
2.297957321264395e-03	1.739307e+00	1.267787e-01
2.347863746968397e-03	1.305338e+00	8.604652e-02
2.370942640956351e-03	1.057285e+00	6.892683e-02
2.386275743877219e-03	8.714067e-01	5.899460e-02
2.390726208474726e-03	8.162609e-01	5.637200e-02
2.398415901658897e-03	7.205085e-01	5.210581e-02
2.405373879297181e-03	6.336080e-01	4.852198e-02
2.416066175468867e-03	4.998216e-01	4.348483e-02
2.428236706744588e-03	3.473529e-01	3.838234e-02
2.445687164295602e-03	1.285233e-01	3.208474e-02
2.475110955790199e-03	-2.406820e-01	2.368137e-02
2.500890281493589e-03	-5.640131e-01	1.815880e-02
2.521538573154114e-03	-8.218371e-01	1.470413e-02
2.534607252558116e-03	-9.811050e-01	1.293472e-02
2.544295698086240e-03	-1.092050e+00	1.190219e-02
2.554338588468871e-03	-1.196796e+00	1.123029e-02
2.567564911887410e-03	-1.320930e+00	1.120868e-02
2.587304184160249e-03	-1.489906e+00	1.329487e-02
2.608080989486600e-03	-1.657919e+00	1.821259e-02
2.640931818754215e-03	-1.914783e+00	3.087163e-02
2.699525568754216e-03	-2.359769e+00	6.416435e-02
2.758119318754216e-03	-2.792810e+00	1.062463e-01
2.816713068754216e-03	-3.213622e+00	1.526404e-01
2.875306818754216e-03	-3.619978e+00	2.007110e-01
2.933900568754216e-03	-4.010082e+00	2.488925e-01
2.992494318754216e-03	-4.381943e+00	2.961961e-01
3.051088068754216e-03	-4.733594e+00	3.419652e-01
3.109681818754216e-03	-5.063218e+00	3.857290e-01
3.168275568754216e-03	-5.369080e+00	4.271231e-01
3.226869318754216e-03	-5.649593e+00	4.658481e-01
3.285463068754216e-03	-5.903267e+00	5.016482e-01
3.344056818754216e-03	-6.128778e+00	5.343000e-01
3.402650568754216e-03	-6.324916e+00	5.636070e-01
3.461244318754216e-03	-6.490653e+00	5.893964e-01
3.519838068754216e-03	-6.625090e+00	6.115184e-01
3.578431818754216e-03	-6.727522e+00	6.298458e-01
3.637025568754216e-03	-6.797385e+00	6.442735e-01
3.695619318754216e-03	-6.834314e+00	6.547189e-01
3.754213068754216e-03	-6.838089e+00	6.611224e-01
3.812806818754217e-03	-6.808699e+00	6.634469e-01
3.871400568754217e-03	-6.746274e+00	6.616786e-01
3.929994318754217e-03	-6.651151e+00	6.558265e-01
3.988588068754216e-03	-6.523811e+00	6.459228e-01
4.047181818754216e-03	-6.364932e+00	6.320224e-01
4.105775568754215e-03	-6.175329e+00	6.142030e-01
4.164369318754215e-03	-5.956004e+00	5.925646e-01
4.222963068754215e-03	-5.708081e+00	5.672292e-01
4.281556818754214e-03	-5.432860e+00	5.383409e-01
4.340150568754214e-03	-5.131739e+00	5.060648e-01
4.398744318754214e-03	-4.806264e+00	4.705879e-01
4.457338068754213e-03	-4.458051e+00	4.321184e-01
4.515931818754213e-03	-4.088815e+00	3.908870e-01
4.574525568754212e-03	-3.700271e+00	3.471491e-01
4.633119318754212e-03	-3.294113e+00	3.011897e-01
4.691713068754212e-03	-2.871795e+00	2.533357e-01
4.750306818754211e-03	-2.434186e+00	2.039862e-01
4.808900568754211e-03	-1.979536e+00	1.537350e-01
4.867494318754211e-03	-1.495538e+00	1.038888e-01
4.899790059249146e-03	-1.184311e+00	7.805075e-02
4.913841783358634e-03	-1.022821e+00	6.788383e-02
4.923572922825466e-03	-9.038267e-01	6.149349e-02
4.928214110823151e-03	-8.461504e-01	5.864769e-02
4.935510897641508e-03	-7.549515e-01	5.442967e-02
4.942536407152564e-03	-6.668333e-01	5.065167e-02
4.951932718288558e-03	-5.488021e-01	4.600189e-02
4.963170208353306e-03	-4.075275e-01	4.099550e-02
4.979592949797213e-03	-2.010382e-01	3.463460e-02
5.010554529444719e-03	1.880208e-01	2.515418e-02
5.037293493613906e-03	5.233303e-01	1.909553e-02
5.059609556406996e-03	8.017515e-01	1.519411e-02
5.073313730716210e-03	9.689087e-01	1.326954e-02
5.083083943330782e-03	1.081273e+00	1.217728e-02
5.093301945396560e-03	1.188369e+00	1.143139e-02
5.105696870327854e-03	1.305277e+00	1.129043e-02
5.125058265386905e-03	1.471362e+00	1.305361e-02
5.145372438033742e-03	1.635236e+00	1.751232e-02
5.176544855894761e-03	1.877614e+00	2.887074e-02
5.233332484565908e-03	2.305045e+00	5.981174e-02
5.291926234565908e-03	2.732581e+00	1.006842e-01
5.350519984565908e-03	3.146544e+00	1.460403e-01
5.409113734565907e-03	3.544709e+00	1.930954e-01
5.467707484565907e-03	3.925419e+00	2.402039e-01
5.526301234565907e-03	4.286690e+00	2.863350e-01
5.584894984565906e-03	4.626660e+00	3.308129e-01
5.643488734565906e-03	4.943527e+00	3.731605e-01
5.702082484565905e-03	5.235682e+00	4.130141e-01
5.760676234565905e-03	5.501561e+00	4.500790e-01
5.819269984565905e-03	5.739809e+00	4.841067e-01
5.877863734565904e-03	5.949136e+00	5.148826e-01
5.936457484565904e-03	6.128475e+00	5.422200e-01
5.995051234565904e-03	6.276839e+00	5.659571e-01
6.053644984565903e-03	6.393477e+00	5.859554e-01
6.112238734565903e-03	6.477732e+00	6.020997e-01
6.170832484565902e-03	6.529188e+00	6.142970e-01
6.229426234565902e-03	6.547532e+00	6.224777e-01
6.288019984565902e-03	6.532698e+00	6.265949e-01
6.346613734565901e-03	6.484721e+00	6.266248e-01
6.405207484565901e-03	6.403886e+00	6.225667e-01
6.463801234565900e-03	6.290578e+00	6.144432e-01
6.522394984565900e-03	6.145423e+00	6.022996e-01
6.580988734565900e-03	5.969143e+00	5.862043e-01
6.639582484565899e-03	5.762692e+00	5.662485e-01
6.698176234565899e-03	5.527105e+00	5.425454e-01
6.756769984565899e-03	5.263636e+00	5.152307e-01
6.815363734565898e-03	4.973599e+00	4.844618e-01
6.873957484565898e-03	4.658498e+00	4.504184e-01
6.932551234565897e-03	4.319868e+00	4.133020e-01
6.991144984565897e-03	3.959380e+00	3.733381e-01
7.049738734565897e-03	3.578661e+00	3.307779e-01
7.108332484565896e-03	3.179341e+00	2.859050e-01
7.166926234565896e-03	2.762721e+00	2.390497e-01
7.225519984565896e-03	2.329415e+00	1.906263e-01
7.284113734565895e-03	1.876534e+00	1.412966e-01
7.342707484565895e-03	1.384549e+00	9.278011e-02
7.369404891390073e-03	1.111996e+00	7.235573e-02
7.382677367594422e-03	9.546778e-01	6.330533e-02
7.388497003257296e-03	8.832173e-01	5.966041e-02
7.394270985170301e-03	8.116507e-01	5.624260e-02
7.401200419558636e-03	7.253268e-01	5.239251e-02
7.409353232018752e-03	6.234410e-01	4.819496e-02
7.419164622440139e-03	5.006250e-01	4.358416e-02
7.433684347593156e-03	3.186339e-01	3.755118e-02
7.459434816670891e-03	-4.436791e-03	2.880088e-02
7.510935754826361e-03	-6.504145e-01	1.678465e-02
7.534944570448338e-03	-9.474787e-01	1.319048e-02
7.551038163168454e-03	-1.130744e+00	1.155736e-02
7.565910119771338e-03	-1.277177e+00	1.106076e-02
7.581544419818677e-03	-1.415152e+00	1.200614e-02
7.605493978318491e-03	-1.611964e+00	1.655677e-02
7.631035832500335e-03	-1.813362e+00	2.518338e-02
7.679539391675362e-03	-2.185010e+00	4.967908e-02
7.737147589705477e-03	-2.614948e+00	8.818296e-02
7.795741339705477e-03	-3.040550e+00	1.331272e-01
7.854335089705478e-03	-3.452271e+00	1.806656e-01
7.912928839705478e-03	-3.848462e+00	2.288666e-01
7.971522589705479e-03	-4.227171e+00	2.765317e-01
8.030116339705479e-03	-4.586323e+00	3.228894e-01
8.088710089705480e-03	-4.924111e+00	3.674059e-01
8.147303839705480e-03	-5.238713e+00	4.096801e-01
8.205897589705481e-03	-5.528546e+00	4.493902e-01
8.264491339705481e-03	-5.792027e+00	4.862649e-01
8.323085089705482e-03	-6.027830e+00	5.200694e-01
8.381678839705482e-03	-6.234643e+00	5.505974e-01
8.440272589705483e-03	-6.411434e+00	5.776675e-01
8.498866339705483e-03	-6.557198e+00	6.011218e-01
8.557460089705484e-03	-6.671218e+00	6.208249e-01
8.616053839705484e-03	-6.752820e+00	6.366634e-01
8.674647589705485e-03	-6.801628e+00	6.485469e-01
8.733241339705485e-03	-6.817310e+00	6.564074e-01
8.791835089705486e-03	-6.799839e+00	6.601998e-01
8.850428839705486e-03	-6.749235e+00	6.599018e-01
8.909022589705487e-03	-6.665822e+00	6.555144e-01
8.967616339705487e-03	-6.549969e+00	6.470613e-01
9.026210089705488e-03	-6.402344e+00	6.345896e-01
9.084803839705488e-03	-6.223652e+00	6.181687e-01
9.143397589705489e-03	-6.014891e+00	5.978906e-01
9.201991339705489e-03	-5.777081e+00	5.738696e-01
9.260585089705490e-03	-5.511518e+00	5.462421e-01
9.319178839705490e-03	-5.219508e+00	5.151657e-01
9.377772589705491e-03	-4.902603e+00	4.808197e-01
9.436366339705491e-03	-4.562337e+00	4.434048e-01
9.494960089705492e-03	-4.200449e+00	4.031438e-01
9.553553839705492e-03	-3.818598e+00	3.602834e-01
9.612147589705492e-03	-3.418547e+00	3.150980e-01
9.670741339705493e-03	-3.001791e+00	2.678988e-01
9.729335089705493e-03	-2.569504e+00	2.190566e-01
9.787928839705494e-03	-2.120997e+00	1.690846e-01
9.846522589705494e-03	-1.649992e+00	1.189208e-01
9.889979859947986e-03	-1.256922e+00	8.329809e-02
9.908516263763132e-03	-1.051665e+00	6.951560e-02
9.926968304555053e-03	-8.254672e-01	5.762282e-02
9.932327719316826e-03	-7.584673e-01	5.454887e-02
9.938914370908668e-03	-6.758904e-01	5.099152e-02
9.946982891086925e-03	-5.745794e-01	4.694592e-02
9.959065634226660e-03	-4.227228e-01	4.147503e-02
9.976343394843823e-03	-2.055108e-01	3.473194e-02
1.000854211530846e-02	1.990756e-01	2.489877e-02
1.005611445280422e-02	7.943806e-01	1.516966e-02
1.007306849044744e-02	1.000315e+00	1.285561e-02
1.008697047017568e-02	1.153761e+00	1.156707e-02
1.009980553780053e-02	1.278216e+00	1.119053e-02
1.011987060007258e-02	1.452546e+00	1.268512e-02
1.014019310934626e-02	1.617464e+00	1.686715e-02
1.016997271576056e-02	1.849914e+00	2.728188e-02
1.021882746422683e-02	2.219611e+00	5.272803e-02
1.027742121422683e-02	2.650276e+00	9.223633e-02
1.033601496422683e-02	3.067720e+00	1.370077e-01
1.039460871422683e-02	3.469825e+00	1.839426e-01
1.045320246422683e-02	3.854946e+00	2.312176e-01
1.051179621422683e-02	4.221166e+00	2.776993e-01
1.057038996422683e-02	4.566501e+00	3.226553e-01
1.062898371422683e-02	4.889205e+00	3.655770e-01
1.068757746422683e-02	5.187552e+00	4.060818e-01
1.074617121422683e-02	5.460037e+00	4.438629e-01
1.080476496422684e-02	5.705181e+00	4.786629e-01
1.086335871422684e-02	5.921746e+00	5.102603e-01
1.092195246422684e-02	6.108541e+00	5.384623e-01
1.098054621422684e-02	6.264625e+00	5.631013e-01
1.103913996422684e-02	6.389121e+00	5.840332e-01
1.109773371422684e-02	6.481416e+00	6.011371e-01
1.115632746422684e-02	6.540967e+00	6.143147e-01
1.121492121422684e-02	6.567502e+00	6.234905e-01
1.127351496422684e-02	6.560825e+00	6.286122e-01
1.133210871422684e-02	6.521016e+00	6.296500e-01
1.139070246422684e-02	6.448230e+00	6.265977e-01
1.144929621422684e-02	6.342893e+00	6.194720e-01
1.150788996422684e-02	6.205507e+00	6.083128e-01
1.156648371422684e-02	6.036837e+00	5.931826e-01
1.162507746422684e-02	5.837713e+00	5.741668e-01
1.168367121422684e-02	5.609219e+00	5.513734e-01
1.174226496422684e-02	5.352488e+00	5.249324e-01
1.180085871422684e-02	5.068889e+00	4.949957e-01
1.185945246422684e-02	4.759815e+00	4.617374e-01
1.191804621422684e-02	4.426863e+00	4.253534e-01
1.197663996422684e-02	4.071611e+00	3.860626e-01
1.203523371422685e-02	3.695774e+00	3.441090e-01
1.209382746422685e-02	3.300934e+00	2.997665e-01
1.215242121422685e-02	2.888590e+00	2.533498e-01
1.221101496422685e-02	2.459586e+00	2.052426e-01
1.226960871422685e-02	2.012573e+00	1.560067e-01
1.232820246422685e-02	1.537318e+00	1.068135e-01
1.236273283615241e-02	1.214741e+00	7.927686e-02
1.237829200931435e-02	1.039967e+00	6.800786e-02
1.239172852057551e-02	8.765445e-01	5.933178e-02
1.239632467212473e-02	8.195354e-01	5.661012e-02
1.240358646131309e-02	7.290723e-01	5.255601e-02
1.241080363017389e-02	6.388476e-01	4.881151e-02
1.242108088513776e-02	5.101866e-01	4.393122e-02
1.243318386873749e-02	3.584476e-01	3.880332e-02
1.245328935007216e-02	1.062074e-01	3.155841e-02
1.249347577746498e-02	-3.981873e-01	2.078580e-02
1.252362134148816e-02	-7.754860e-01	1.524098e-02
1.253834465624785e-02	-9.562811e-01	1.316653e-02
1.254992202257803e-02	-1.089891e+00	1.190177e-02
1.256050311122916e-02	-1.200138e+00	1.120159e-02
1.257326923420658e-02	-1.319748e+00	1.118925e-02
1.259309685834887e-02	-1.489429e+00	1.327518e-02
1.261387617828039e-02	-1.657321e+00	1.818665e-02
1.264673861332286e-02	-1.913996e+00	3.083434e-02
1.270533236332286e-02	-2.358278e+00	6.408034e-02
1.276392611332287e-02	-2.790396e+00	1.060883e-01
1.282251986332287e-02	-3.210044e+00	1.523804e-01
1.288111361332287e-02	-3.615030e+00	2.003212e-01
1.293970736332287e-02	-4.003539e+00	2.483452e-01
1.299830111332287e-02	-4.373615e+00	2.954646e-01
1.305689486332287e-02	-4.723275e+00	3.410236e-01
1.311548861332287e-02	-5.050738e+00	3.845527e-01
1.317408236332287e-02	-5.354258e+00	4.256887e-01
1.323267611332287e-02	-5.632284e+00	4.641337e-01
1.329126986332287e-02	-5.883315e+00	4.996337e-01
1.334986361332287e-02	-6.106067e+00	5.319667e-01
1.340845736332287e-02	-6.299320e+00	5.609381e-01
1.346705111332287e-02	-6.462087e+00	5.863770e-01
1.352564486332287e-02	-6.593460e+00	6.081358e-01
1.358423861332287e-02	-6.692778e+00	6.260890e-01
1.364283236332287e-02	-6.759465e+00	6.401338e-01
1.370142611332287e-02	-6.793201e+00	6.501898e-01
1.376001986332287e-02	-6.793759e+00	6.561996e-01
1.381861361332287e-02	-6.761169e+00	6.581283e-01
1.387720736332287e-02	-6.695553e+00	6.559644e-01
1.393580111332287e-02	-6.597292e+00	6.497194e-01
1.399439486332288e-02	-6.466856e+00	6.394274e-01
1.405298861332288e-02	-6.304968e+00	6.251458e-01
1.411158236332288e-02	-6.112429e+00	6.069546e-01
1.417017611332288e-02	-5.890285e+00	5.849559e-01
1.422876986332288e-02	-5.639647e+00	5.592743e-01
1.428736361332288e-02	-5.361853e+00	5.300558e-01
1.434595736332288e-02	-5.058284e+00	4.974682e-01
1.440455111332288e-02	-4.730525e+00	4.617006e-01
1.446314486332288e-02	-4.380166e+00	4.229638e-01
1.452173861332288e-02	-4.008951e+00	3.814917e-01
1.458033236332288e-02	-3.618554e+00	3.375433e-01
1.463892611332288e-02	-3.210664e+00	2.914093e-01
1.469751986332288e-02	-2.786629e+00	2.434257e-01
1.475611361332288e-02	-2.347126e+00	1.940115e-01
1.481470736332288e-02	-1.889374e+00	1.438277e-01
1.487330111332288e-02	-1.394472e+00	9.456444e-02
1.490273953125982e-02	-1.090510e+00	7.188040e-02
1.491487954709551e-02	-9.448162e-01	6.358775e-02
1.492065650999269e-02	-8.733874e-01	5.995057e-02
1.492663694531405e-02	-7.988741e-01	5.639585e-02
1.493356601352585e-02	-7.121158e-01	5.253478e-02
1.494191291863464e-02	-6.073993e-01	4.822941e-02
1.495209768449623e-02	-4.794320e-01	4.344828e-02
1.496611910868574e-02	-3.032106e-01	3.762661e-02
1.499105999102222e-02	1.029274e-02	2.910316e-02
1.504094175569516e-02	6.359220e-01	1.726399e-02
1.506450072535937e-02	9.275426e-01	1.361136e-02
1.508060614131683e-02	1.112768e+00	1.185636e-02
1.509541519183014e-02	1.260472e+00	1.119738e-02
1.510968589929456e-02	1.387502e+00	1.180328e-02
1.513567016693354e-02	1.601249e+00	1.632090e-02
1.515936177613444e-02	1.787332e+00	2.399653e-02
1.520674499453626e-02	2.148225e+00	4.706147e-02
1.526298143591237e-02	2.564248e+00	8.366509e-02
1.532157518591237e-02	2.985104e+00	1.277034e-01
1.538016893591237e-02	3.390980e+00	1.744277e-01
1.543876268591237e-02	3.780422e+00	2.218113e-01
1.549735643591237e-02	4.151416e+00	2.686040e-01
1.555595018591237e-02	4.502035e+00	3.140086e-01
1.561454393591237e-02	4.830410e+00	3.574806e-01
1.567313768591237e-02	5.134881e+00	3.986163e-01
1.573173143591237e-02	5.413814e+00	4.370957e-01
1.579032518591237e-02	5.665797e+00	4.726519e-01
1.584891893591237e-02	5.889459e+00	5.050561e-01
1.590751268591236e-02	6.083666e+00	5.341093e-01
1.596610643591236e-02	6.247346e+00	5.596380e-01
1.602470018591236e-02	6.379677e+00	5.814925e-01
1.608329393591236e-02	6.479906e+00	5.995466e-01
1.614188768591236e-02	6.547546e+00	6.136962e-01
1.620048143591236e-02	6.582186e+00	6.238602e-01
1.625907518591236e-02	6.583683e+00	6.299807e-01
1.631766893591236e-02	6.551977e+00	6.320224e-01
1.637626268591235e-02	6.487276e+00	6.299732e-01
1.643485643591235e-02	6.389868e+00	6.238443e-01
1.649345018591235e-02	6.260309e+00	6.136695e-01
1.655204393591235e-02	6.099226e+00	5.995061e-01
1.661063768591235e-02	5.907509e+00	5.814339e-01
1.666923143591235e-02	5.686106e+00	5.595551e-01
1.672782518591235e-02	5.436212e+00	5.339942e-01
1.678641893591235e-02	5.159066e+00	5.048979e-01
1.684501268591234e-02	4.856131e+00	4.724346e-01
1.690360643591234e-02	4.528884e+00	4.367945e-01
1.696220018591234e-02	4.178986e+00	3.981907e-01
1.702079393591234e-02	3.808054e+00	3.568603e-01
1.707938768591234e-02	3.417791e+00	3.130684e-01
1.713798143591234e-02	3.009677e+00	2.671168e-01
1.719657518591234e-02	2.584880e+00	2.193653e-01
1.725516893591234e-02	2.143252e+00	1.702909e-01
1.731376268591233e-02	1.678152e+00	1.207990e-01
1.735564130889980e-02	1.309584e+00	8.654180e-02
1.737853995608110e-02	1.064019e+00	6.946950e-02
1.739383004671728e-02	8.787335e-01	5.949117e-02
1.739824000144380e-02	8.240533e-01	5.687051e-02
1.740503388922634e-02	7.393956e-01	5.305167e-02
1.741223719745518e-02	6.493616e-01	4.927908e-02
1.742232101380905e-02	5.230782e-01	4.444035e-02
1.743412421398786e-02	3.750973e-01	3.937422e-02
1.745044418959509e-02	1.703120e-01	3.330013e-02
1.748148376046588e-02	-2.193368e-01	2.416518e-02
