r	V(bout)	V(cout)	V(n001)	V(n002)	I(R1)	I(R2)	I(VCC)	I(Vb)	Ib(Q1)	Ic(Q1)	Ie(Q1)	Is(Q1)
1.000000000000000e+02	7.129745e-01	1.107933e+01	1.200000e+01	5.000000e+00	-4.287026e-05	9.206661e-03	-9.206661e-03	-4.287026e-05	4.287026e-05	9.206661e-03	-9.249531e-03	0.000000e+00
1.500000000000000e+02	7.129670e-01	1.062469e+01	1.200000e+01	5.000000e+00	-4.287033e-05	9.168752e-03	-9.168752e-03	-4.287033e-05	4.287033e-05	9.168752e-03	-9.211621e-03	0.000000e+00
2.000000000000000e+02	7.129595e-01	1.017377e+01	1.200000e+01	5.000000e+00	-4.287040e-05	9.131152e-03	-9.131152e-03	-4.287040e-05	4.287040e-05	9.131152e-03	-9.174023e-03	0.000000e+00
2.500000000000000e+02	7.129521e-01	9.726535e+00	1.200000e+01	5.000000e+00	-4.287048e-05	9.093860e-03	-9.093860e-03	-4.287048e-05	4.287048e-05	9.093860e-03	-9.136731e-03	0.000000e+00
3.000000000000000e+02	7.129447e-01	9.282939e+00	1.200000e+01	5.000000e+00	-4.287055e-05	9.056871e-03	-9.056871e-03	-4.287055e-05	4.287055e-05	9.056871e-03	-9.099741e-03	0.000000e+00
3.500000000000000e+02	7.129374e-01	8.842937e+00	1.200000e+01	5.000000e+00	-4.287063e-05	9.020182e-03	-9.020182e-03	-4.287063e-05	4.287063e-05	9.020182e-03	-9.063053e-03	0.000000e+00
4.000000000000000e+02	7.129302e-01	8.406485e+00	1.200000e+01	5.000000e+00	-4.287070e-05	8.983789e-03	-8.983789e-03	-4.287070e-05	4.287070e-05	8.983789e-03	-9.026660e-03	0.000000e+00
4.500000000000000e+02	7.129230e-01	7.973540e+00	1.200000e+01	5.000000e+00	-4.287077e-05	8.947688e-03	-8.947688e-03	-4.287077e-05	4.287077e-05	8.947688e-03	-8.990559e-03	0.000000e+00
5.000000000000000e+02	7.129159e-01	7.544062e+00	1.200000e+01	5.000000e+00	-4.287084e-05	8.911876e-03	-8.911876e-03	-4.287084e-05	4.287084e-05	8.911876e-03	-8.954747e-03	0.000000e+00
5.500000000000000e+02	7.129088e-01	7.118008e+00	1.200000e+01	5.000000e+00	-4.287091e-05	8.876349e-03	-8.876349e-03	-4.287091e-05	4.287091e-05	8.876349e-03	-8.919220e-03	0.000000e+00
6.000000000000000e+02	7.129018e-01	6.695337e+00	1.200000e+01	5.000000e+00	-4.287098e-05	8.841105e-03	-8.841105e-03	-4.287098e-05	4.287098e-05	8.841105e-03	-8.883975e-03	0.000000e+00
6.500000000000000e+02	7.128949e-01	6.276010e+00	1.200000e+01	5.000000e+00	-4.287105e-05	8.806138e-03	-8.806138e-03	-4.287105e-05	4.287105e-05	8.806138e-03	-8.849010e-03	0.000000e+00
7.000000000000000e+02	7.128880e-01	5.859986e+00	1.200000e+01	5.000000e+00	-4.287112e-05	8.771447e-03	-8.771447e-03	-4.287112e-05	4.287112e-05	8.771447e-03	-8.814319e-03	0.000000e+00
7.500000000000000e+02	7.128811e-01	5.447228e+00	1.200000e+01	5.000000e+00	-4.287119e-05	8.737030e-03	-8.737030e-03	-4.287119e-05	4.287119e-05	8.737030e-03	-8.779901e-03	0.000000e+00
8.000000000000000e+02	7.128744e-01	5.037696e+00	1.200000e+01	5.000000e+00	-4.287126e-05	8.702880e-03	-8.702880e-03	-4.287126e-05	4.287126e-05	8.702880e-03	-8.745751e-03	0.000000e+00
8.500000000000000e+02	7.128676e-01	4.631353e+00	1.200000e+01	5.000000e+00	-4.287132e-05	8.668996e-03	-8.668996e-03	-4.287132e-05	4.287132e-05	8.668996e-03	-8.711868e-03	0.000000e+00
9.000000000000000e+02	7.128609e-01	4.228162e+00	1.200000e+01	5.000000e+00	-4.287139e-05	8.635376e-03	-8.635376e-03	-4.287139e-05	4.287139e-05	8.635376e-03	-8.678247e-03	0.000000e+00
9.500000000000000e+02	7.128543e-01	3.828086e+00	1.200000e+01	5.000000e+00	-4.287146e-05	8.602014e-03	-8.602014e-03	-4.287146e-05	4.287146e-05	8.602014e-03	-8.644885e-03	0.000000e+00
1.000000000000000e+03	7.128477e-01	3.431090e+00	1.200000e+01	5.000000e+00	-4.287152e-05	8.568910e-03	-8.568910e-03	-4.287152e-05	4.287152e-05	8.568910e-03	-8.611782e-03	0.000000e+00
1.050000000000000e+03	7.128412e-01	3.037138e+00	1.200000e+01	5.000000e+00	-4.287159e-05	8.536058e-03	-8.536058e-03	-4.287159e-05	4.287159e-05	8.536058e-03	-8.578930e-03	0.000000e+00
1.100000000000000e+03	7.128347e-01	2.646195e+00	1.200000e+01	5.000000e+00	-4.287165e-05	8.503458e-03	-8.503458e-03	-4.287165e-05	4.287165e-05	8.503458e-03	-8.546331e-03	0.000000e+00
1.150000000000000e+03	7.128283e-01	2.258227e+00	1.200000e+01	5.000000e+00	-4.287172e-05	8.471107e-03	-8.471107e-03	-4.287172e-05	4.287172e-05	8.471107e-03	-8.513979e-03	0.000000e+00
1.200000000000000e+03	7.128219e-01	1.873200e+00	1.200000e+01	5.000000e+00	-4.287178e-05	8.439000e-03	-8.439000e-03	-4.287178e-05	4.287178e-05	8.439000e-03	-8.481872e-03	0.000000e+00
1.250000000000000e+03	7.128155e-01	1.491081e+00	1.200000e+01	5.000000e+00	-4.287184e-05	8.407135e-03	-8.407135e-03	-4.287184e-05	4.287184e-05	8.407135e-03	-8.450007e-03	0.000000e+00
1.300000000000000e+03	7.128093e-01	1.111836e+00	1.200000e+01	5.000000e+00	-4.287191e-05	8.375511e-03	-8.375511e-03	-4.287191e-05	4.287191e-05	8.375511e-03	-8.418383e-03	0.000000e+00
1.350000000000000e+03	7.128030e-01	7.354342e-01	1.200000e+01	5.000000e+00	-4.287197e-05	8.344123e-03	-8.344123e-03	-4.287197e-05	4.287197e-05	8.344123e-03	-8.386995e-03	0.000000e+00
1.400000000000000e+03	7.127951e-01	3.625029e-01	1.200000e+01	5.000000e+00	-4.287205e-05	8.312498e-03	-8.312498e-03	-4.287205e-05	4.287205e-05	8.312498e-03	-8.355370e-03	0.000000e+00
1.450000000000000e+03	7.122186e-01	2.122540e-01	1.200000e+01	5.000000e+00	-4.287781e-05	8.129480e-03	-8.129480e-03	-4.287781e-05	4.287781e-05	8.129480e-03	-8.172357e-03	0.000000e+00
1.500000000000000e+03	7.113468e-01	1.878518e-01	1.200000e+01	5.000000e+00	-4.288653e-05	7.874765e-03	-7.874765e-03	-4.288653e-05	4.288653e-05	7.874765e-03	-7.917652e-03	0.000000e+00
1.550000000000000e+03	7.104781e-01	1.751302e-01	1.200000e+01	5.000000e+00	-4.289522e-05	7.628948e-03	-7.628948e-03	-4.289522e-05	4.289522e-05	7.628948e-03	-7.671843e-03	0.000000e+00
1.600000000000000e+03	7.096300e-01	1.665116e-01	1.200000e+01	5.000000e+00	-4.290370e-05	7.395930e-03	-7.395930e-03	-4.290370e-05	4.290370e-05	7.395930e-03	-7.438834e-03	0.000000e+00
1.650000000000000e+03	7.088057e-01	1.599914e-01	1.200000e+01	5.000000e+00	-4.291194e-05	7.175763e-03	-7.175763e-03	-4.291194e-05	4.291194e-05	7.175763e-03	-7.218675e-03	0.000000e+00
1.700000000000000e+03	7.080056e-01	1.547465e-01	1.200000e+01	5.000000e+00	-4.291994e-05	6.967796e-03	-6.967796e-03	-4.291994e-05	4.291994e-05	6.967796e-03	-7.010716e-03	0.000000e+00
1.750000000000000e+03	7.072290e-01	1.503588e-01	1.200000e+01	5.000000e+00	-4.292771e-05	6.771224e-03	-6.771224e-03	-4.292771e-05	4.292771e-05	6.771224e-03	-6.814151e-03	0.000000e+00
1.800000000000000e+03	7.064749e-01	1.465873e-01	1.200000e+01	5.000000e+00	-4.293525e-05	6.585229e-03	-6.585229e-03	-4.293525e-05	4.293525e-05	6.585229e-03	-6.628165e-03	0.000000e+00
1.850000000000000e+03	7.057425e-01	1.432801e-01	1.200000e+01	5.000000e+00	-4.294257e-05	6.409038e-03	-6.409038e-03	-4.294257e-05	4.294257e-05	6.409038e-03	-6.451980e-03	0.000000e+00
1.900000000000000e+03	7.050306e-01	1.403355e-01	1.200000e+01	5.000000e+00	-4.294969e-05	6.241929e-03	-6.241929e-03	-4.294969e-05	4.294969e-05	6.241929e-03	-6.284878e-03	0.000000e+00
1.950000000000000e+03	7.043383e-01	1.376821e-01	1.200000e+01	5.000000e+00	-4.295662e-05	6.083240e-03	-6.083240e-03	-4.295662e-05	4.295662e-05	6.083240e-03	-6.126197e-03	0.000000e+00
2.000000000000000e+03	7.036647e-01	1.352675e-01	1.200000e+01	5.000000e+00	-4.296335e-05	5.932366e-03	-5.932366e-03	-4.296335e-05	4.296335e-05	5.932366e-03	-5.975330e-03	0.000000e+00
2.050000000000000e+03	7.030088e-01	1.330525e-01	1.200000e+01	5.000000e+00	-4.296991e-05	5.788755e-03	-5.788755e-03	-4.296991e-05	4.296991e-05	5.788755e-03	-5.831725e-03	0.000000e+00
2.100000000000000e+03	7.023697e-01	1.310069e-01	1.200000e+01	5.000000e+00	-4.297630e-05	5.651901e-03	-5.651901e-03	-4.297630e-05	4.297630e-05	5.651901e-03	-5.694878e-03	0.000000e+00
2.150000000000000e+03	7.017468e-01	1.291066e-01	1.200000e+01	5.000000e+00	-4.298253e-05	5.521346e-03	-5.521346e-03	-4.298253e-05	4.298253e-05	5.521346e-03	-5.564328e-03	0.000000e+00
2.200000000000000e+03	7.011392e-01	1.273327e-01	1.200000e+01	5.000000e+00	-4.298861e-05	5.396667e-03	-5.396667e-03	-4.298861e-05	4.298861e-05	5.396667e-03	-5.439655e-03	0.000000e+00
2.250000000000000e+03	7.005461e-01	1.256699e-01	1.200000e+01	5.000000e+00	-4.299454e-05	5.277480e-03	-5.277480e-03	-4.299454e-05	4.299454e-05	5.277480e-03	-5.320475e-03	0.000000e+00
2.300000000000000e+03	6.999671e-01	1.241046e-01	1.200000e+01	5.000000e+00	-4.300033e-05	5.163433e-03	-5.163433e-03	-4.300033e-05	4.300033e-05	5.163433e-03	-5.206433e-03	0.000000e+00
2.350000000000000e+03	6.994015e-01	1.226265e-01	1.200000e+01	5.000000e+00	-4.300598e-05	5.054201e-03	-5.054201e-03	-4.300598e-05	4.300598e-05	5.054201e-03	-5.097208e-03	0.000000e+00
2.400000000000000e+03	6.988487e-01	1.212264e-01	1.200000e+01	5.000000e+00	-4.301151e-05	4.949489e-03	-4.949489e-03	-4.301151e-05	4.301151e-05	4.949489e-03	-4.992500e-03	0.000000e+00
2.450000000000000e+03	6.983081e-01	1.198968e-01	1.200000e+01	5.000000e+00	-4.301692e-05	4.849022e-03	-4.849022e-03	-4.301692e-05	4.301692e-05	4.849022e-03	-4.892039e-03	0.000000e+00
2.500000000000000e+03	6.977792e-01	1.186308e-01	1.200000e+01	5.000000e+00	-4.302221e-05	4.752547e-03	-4.752547e-03	-4.302221e-05	4.302221e-05	4.752547e-03	-4.795570e-03	0.000000e+00
2.550000000000000e+03	6.972616e-01	1.174230e-01	1.200000e+01	5.000000e+00	-4.302738e-05	4.659834e-03	-4.659834e-03	-4.302738e-05	4.302738e-05	4.659834e-03	-4.702861e-03	0.000000e+00
2.600000000000000e+03	6.967549e-01	1.162681e-01	1.200000e+01	5.000000e+00	-4.303245e-05	4.570666e-03	-4.570666e-03	-4.303245e-05	4.303245e-05	4.570666e-03	-4.613698e-03	0.000000e+00
2.650000000000000e+03	6.962585e-01	1.151620e-01	1.200000e+01	5.000000e+00	-4.303742e-05	4.484844e-03	-4.484844e-03	-4.303742e-05	4.303742e-05	4.484844e-03	-4.527882e-03	0.000000e+00
2.700000000000000e+03	6.957721e-01	1.141006e-01	1.200000e+01	5.000000e+00	-4.304228e-05	4.402185e-03	-4.402185e-03	-4.304228e-05	4.304228e-05	4.402185e-03	-4.445227e-03	0.000000e+00
2.750000000000000e+03	6.952953e-01	1.130807e-01	1.200000e+01	5.000000e+00	-4.304705e-05	4.322516e-03	-4.322516e-03	-4.304705e-05	4.304705e-05	4.322516e-03	-4.365563e-03	0.000000e+00
2.800000000000000e+03	6.948277e-01	1.120991e-01	1.200000e+01	5.000000e+00	-4.305172e-05	4.245679e-03	-4.245679e-03	-4.305172e-05	4.305172e-05	4.245679e-03	-4.288731e-03	0.000000e+00
2.850000000000000e+03	6.943691e-01	1.111532e-01	1.200000e+01	5.000000e+00	-4.305631e-05	4.171525e-03	-4.171525e-03	-4.305631e-05	4.305631e-05	4.171525e-03	-4.214582e-03	0.000000e+00
2.900000000000000e+03	6.939190e-01	1.102406e-01	1.200000e+01	5.000000e+00	-4.306081e-05	4.099917e-03	-4.099917e-03	-4.306081e-05	4.306081e-05	4.099917e-03	-4.142978e-03	0.000000e+00
2.950000000000000e+03	6.934773e-01	1.093589e-01	1.200000e+01	5.000000e+00	-4.306523e-05	4.030726e-03	-4.030726e-03	-4.306523e-05	4.306523e-05	4.030726e-03	-4.073791e-03	0.000000e+00
3.000000000000000e+03	6.930435e-01	1.085063e-01	1.200000e+01	5.000000e+00	-4.306957e-05	3.963831e-03	-3.963831e-03	-4.306957e-05	4.306957e-05	3.963831e-03	-4.006901e-03	0.000000e+00
3.050000000000000e+03	6.926175e-01	1.076810e-01	1.200000e+01	5.000000e+00	-4.307383e-05	3.899121e-03	-3.899121e-03	-4.307383e-05	4.307383e-05	3.899121e-03	-3.942195e-03	0.000000e+00
3.100000000000000e+03	6.921989e-01	1.068812e-01	1.200000e+01	5.000000e+00	-4.307801e-05	3.836490e-03	-3.836490e-03	-4.307801e-05	4.307801e-05	3.836490e-03	-3.879568e-03	0.000000e+00
3.150000000000000e+03	6.917876e-01	1.061056e-01	1.200000e+01	5.000000e+00	-4.308212e-05	3.775839e-03	-3.775839e-03	-4.308212e-05	4.308212e-05	3.775839e-03	-3.818922e-03	0.000000e+00
3.200000000000000e+03	6.913832e-01	1.053527e-01	1.200000e+01	5.000000e+00	-4.308617e-05	3.717077e-03	-3.717077e-03	-4.308617e-05	4.308617e-05	3.717077e-03	-3.760163e-03	0.000000e+00
3.250000000000000e+03	6.909856e-01	1.046213e-01	1.200000e+01	5.000000e+00	-4.309015e-05	3.660117e-03	-3.660117e-03	-4.309015e-05	4.309015e-05	3.660117e-03	-3.703207e-03	0.000000e+00
3.300000000000000e+03	6.905946e-01	1.039102e-01	1.200000e+01	5.000000e+00	-4.309405e-05	3.604876e-03	-3.604876e-03	-4.309405e-05	4.309405e-05	3.604876e-03	-3.647970e-03	0.000000e+00
3.350000000000000e+03	6.902099e-01	1.032184e-01	1.200000e+01	5.000000e+00	-4.309790e-05	3.551278e-03	-3.551278e-03	-4.309790e-05	4.309790e-05	3.551278e-03	-3.594376e-03	0.000000e+00
3.400000000000000e+03	6.898313e-01	1.025449e-01	1.200000e+01	5.000000e+00	-4.310169e-05	3.499252e-03	-3.499252e-03	-4.310169e-05	4.310169e-05	3.499252e-03	-3.542353e-03	0.000000e+00
3.450000000000000e+03	6.894588e-01	1.018888e-01	1.200000e+01	5.000000e+00	-4.310541e-05	3.448728e-03	-3.448728e-03	-4.310541e-05	4.310541e-05	3.448728e-03	-3.491833e-03	0.000000e+00
3.500000000000000e+03	6.890920e-01	1.012492e-01	1.200000e+01	5.000000e+00	-4.310908e-05	3.399643e-03	-3.399643e-03	-4.310908e-05	4.310908e-05	3.399643e-03	-3.442752e-03	0.000000e+00
3.550000000000000e+03	6.887308e-01	1.006254e-01	1.200000e+01	5.000000e+00	-4.311269e-05	3.351937e-03	-3.351937e-03	-4.311269e-05	4.311269e-05	3.351937e-03	-3.395049e-03	0.000000e+00
3.600000000000000e+03	6.883751e-01	1.000166e-01	1.200000e+01	5.000000e+00	-4.311625e-05	3.305551e-03	-3.305551e-03	-4.311625e-05	4.311625e-05	3.305551e-03	-3.348667e-03	0.000000e+00
3.650000000000000e+03	6.880247e-01	9.942208e-02	1.200000e+01	5.000000e+00	-4.311975e-05	3.260432e-03	-3.260432e-03	-4.311975e-05	4.311975e-05	3.260432e-03	-3.303552e-03	0.000000e+00
3.700000000000000e+03	6.876795e-01	9.884131e-02	1.200000e+01	5.000000e+00	-4.312320e-05	3.216529e-03	-3.216529e-03	-4.312320e-05	4.312320e-05	3.216529e-03	-3.259653e-03	0.000000e+00
3.750000000000000e+03	6.873392e-01	9.827364e-02	1.200000e+01	5.000000e+00	-4.312661e-05	3.173794e-03	-3.173794e-03	-4.312661e-05	4.312661e-05	3.173794e-03	-3.216920e-03	0.000000e+00
3.800000000000000e+03	6.870039e-01	9.771854e-02	1.200000e+01	5.000000e+00	-4.312996e-05	3.132179e-03	-3.132179e-03	-4.312996e-05	4.312996e-05	3.132179e-03	-3.175309e-03	0.000000e+00
3.850000000000000e+03	6.866733e-01	9.717546e-02	1.200000e+01	5.000000e+00	-4.313327e-05	3.091643e-03	-3.091643e-03	-4.313327e-05	4.313327e-05	3.091643e-03	-3.134776e-03	0.000000e+00
3.900000000000000e+03	6.863472e-01	9.664392e-02	1.200000e+01	5.000000e+00	-4.313653e-05	3.052143e-03	-3.052143e-03	-4.313653e-05	4.313653e-05	3.052143e-03	-3.095279e-03	0.000000e+00
3.950000000000000e+03	6.860257e-01	9.612347e-02	1.200000e+01	5.000000e+00	-4.313974e-05	3.013640e-03	-3.013640e-03	-4.313974e-05	4.313974e-05	3.013640e-03	-3.056779e-03	0.000000e+00
4.000000000000000e+03	6.857086e-01	9.561366e-02	1.200000e+01	5.000000e+00	-4.314291e-05	2.976097e-03	-2.976097e-03	-4.314291e-05	4.314291e-05	2.976097e-03	-3.019240e-03	0.000000e+00
4.050000000000000e+03	6.853958e-01	9.511409e-02	1.200000e+01	5.000000e+00	-4.314604e-05	2.939478e-03	-2.939478e-03	-4.314604e-05	4.314604e-05	2.939478e-03	-2.982624e-03	0.000000e+00
4.100000000000000e+03	6.850871e-01	9.462437e-02	1.200000e+01	5.000000e+00	-4.314913e-05	2.903750e-03	-2.903750e-03	-4.314913e-05	4.314913e-05	2.903750e-03	-2.946899e-03	0.000000e+00
4.150000000000000e+03	6.847824e-01	9.414414e-02	1.200000e+01	5.000000e+00	-4.315218e-05	2.868881e-03	-2.868881e-03	-4.315218e-05	4.315218e-05	2.868881e-03	-2.912033e-03	0.000000e+00
4.200000000000000e+03	6.844818e-01	9.367305e-02	1.200000e+01	5.000000e+00	-4.315518e-05	2.834840e-03	-2.834840e-03	-4.315518e-05	4.315518e-05	2.834840e-03	-2.877995e-03	0.000000e+00
4.250000000000000e+03	6.841850e-01	9.321077e-02	1.200000e+01	5.000000e+00	-4.315815e-05	2.801597e-03	-2.801597e-03	-4.315815e-05	4.315815e-05	2.801597e-03	-2.844756e-03	0.000000e+00
4.300000000000000e+03	6.838919e-01	9.275700e-02	1.200000e+01	5.000000e+00	-4.316108e-05	2.769126e-03	-2.769126e-03	-4.316108e-05	4.316108e-05	2.769126e-03	-2.812287e-03	0.000000e+00
4.350000000000000e+03	6.836025e-01	9.231143e-02	1.200000e+01	5.000000e+00	-4.316397e-05	2.737400e-03	-2.737400e-03	-4.316397e-05	4.316397e-05	2.737400e-03	-2.780564e-03	0.000000e+00
4.400000000000000e+03	6.833168e-01	9.187381e-02	1.200000e+01	5.000000e+00	-4.316683e-05	2.706392e-03	-2.706392e-03	-4.316683e-05	4.316683e-05	2.706392e-03	-2.749559e-03	0.000000e+00
4.450000000000000e+03	6.830345e-01	9.144384e-02	1.200000e+01	5.000000e+00	-4.316965e-05	2.676080e-03	-2.676080e-03	-4.316965e-05	4.316965e-05	2.676080e-03	-2.719250e-03	0.000000e+00
4.500000000000000e+03	6.827556e-01	9.102130e-02	1.200000e+01	5.000000e+00	-4.317244e-05	2.646440e-03	-2.646440e-03	-4.317244e-05	4.317244e-05	2.646440e-03	-2.689612e-03	0.000000e+00
4.550000000000000e+03	6.824802e-01	9.060593e-02	1.200000e+01	5.000000e+00	-4.317520e-05	2.617449e-03	-2.617449e-03	-4.317520e-05	4.317520e-05	2.617449e-03	-2.660624e-03	0.000000e+00
4.600000000000000e+03	6.822079e-01	9.019750e-02	1.200000e+01	5.000000e+00	-4.317792e-05	2.589087e-03	-2.589087e-03	-4.317792e-05	4.317792e-05	2.589087e-03	-2.632265e-03	0.000000e+00
4.650000000000000e+03	6.819389e-01	8.979581e-02	1.200000e+01	5.000000e+00	-4.318061e-05	2.561334e-03	-2.561334e-03	-4.318061e-05	4.318061e-05	2.561334e-03	-2.604515e-03	0.000000e+00
4.700000000000000e+03	6.816730e-01	8.940064e-02	1.200000e+01	5.000000e+00	-4.318327e-05	2.534170e-03	-2.534170e-03	-4.318327e-05	4.318327e-05	2.534170e-03	-2.577353e-03	0.000000e+00
4.750000000000000e+03	6.814102e-01	8.901179e-02	1.200000e+01	5.000000e+00	-4.318590e-05	2.507576e-03	-2.507576e-03	-4.318590e-05	4.318590e-05	2.507576e-03	-2.550762e-03	0.000000e+00
4.800000000000000e+03	6.811503e-01	8.862907e-02	1.200000e+01	5.000000e+00	-4.318850e-05	2.481536e-03	-2.481536e-03	-4.318850e-05	4.318850e-05	2.481536e-03	-2.524724e-03	0.000000e+00
4.850000000000000e+03	6.808934e-01	8.825231e-02	1.200000e+01	5.000000e+00	-4.319107e-05	2.456030e-03	-2.456030e-03	-4.319107e-05	4.319107e-05	2.456030e-03	-2.499222e-03	0.000000e+00
4.900000000000000e+03	6.806394e-01	8.788133e-02	1.200000e+01	5.000000e+00	-4.319361e-05	2.431045e-03	-2.431045e-03	-4.319361e-05	4.319361e-05	2.431045e-03	-2.474238e-03	0.000000e+00
4.950000000000000e+03	6.803882e-01	8.751596e-02	1.200000e+01	5.000000e+00	-4.319612e-05	2.406562e-03	-2.406562e-03	-4.319612e-05	4.319612e-05	2.406562e-03	-2.449759e-03	0.000000e+00
5.000000000000000e+03	6.801397e-01	8.715604e-02	1.200000e+01	5.000000e+00	-4.319860e-05	2.382569e-03	-2.382569e-03	-4.319860e-05	4.319860e-05	2.382569e-03	-2.425767e-03	0.000000e+00
