r	V(bout)	V(cout)	V(n001)	V(n002)	I(R1)	I(R2)	I(VCC)	I(Vb)	Ib(Q1)	Ic(Q1)	Ie(Q1)	Is(Q1)
1.000000000000000e+02	7.883584e-01	4.865334e+00	1.200000e+01	5.000000e+00	-4.211641e-04	7.134666e-02	-7.134666e-02	-4.211641e-04	4.211641e-04	7.134666e-02	-7.176783e-02	0.000000e+00
1.050000000000000e+02	7.883133e-01	4.532486e+00	1.200000e+01	5.000000e+00	-4.211687e-04	7.111917e-02	-7.111917e-02	-4.211687e-04	4.211687e-04	7.111917e-02	-7.154034e-02	0.000000e+00
1.100000000000000e+02	7.882684e-01	4.201756e+00	1.200000e+01	5.000000e+00	-4.211732e-04	7.089312e-02	-7.089312e-02	-4.211732e-04	4.211732e-04	7.089312e-02	-7.131430e-02	0.000000e+00
1.150000000000000e+02	7.882238e-01	3.873122e+00	1.200000e+01	5.000000e+00	-4.211776e-04	7.066850e-02	-7.066850e-02	-4.211776e-04	4.211776e-04	7.066850e-02	-7.108968e-02	0.000000e+00
1.200000000000000e+02	7.881795e-01	3.546563e+00	1.200000e+01	5.000000e+00	-4.211820e-04	7.044531e-02	-7.044531e-02	-4.211820e-04	4.211820e-04	7.044531e-02	-7.086649e-02	0.000000e+00
1.250000000000000e+02	7.881355e-01	3.222061e+00	1.200000e+01	5.000000e+00	-4.211864e-04	7.022351e-02	-7.022351e-02	-4.211864e-04	4.211864e-04	7.022351e-02	-7.064470e-02	0.000000e+00
1.300000000000000e+02	7.880917e-01	2.899597e+00	1.200000e+01	5.000000e+00	-4.211908e-04	7.000310e-02	-7.000310e-02	-4.211908e-04	4.211908e-04	7.000310e-02	-7.042429e-02	0.000000e+00
1.350000000000000e+02	7.880481e-01	2.579153e+00	1.200000e+01	5.000000e+00	-4.211952e-04	6.978405e-02	-6.978405e-02	-4.211952e-04	4.211952e-04	6.978405e-02	-7.020525e-02	0.000000e+00
1.400000000000000e+02	7.880049e-01	2.260707e+00	1.200000e+01	5.000000e+00	-4.211995e-04	6.956638e-02	-6.956638e-02	-4.211995e-04	4.211995e-04	6.956638e-02	-6.998758e-02	0.000000e+00
1.450000000000000e+02	7.879620e-01	1.944242e+00	1.200000e+01	5.000000e+00	-4.212038e-04	6.935006e-02	-6.935006e-02	-4.212038e-04	4.212038e-04	6.935006e-02	-6.977126e-02	0.000000e+00
1.500000000000000e+02	7.879193e-01	1.629739e+00	1.200000e+01	5.000000e+00	-4.212081e-04	6.913507e-02	-6.913507e-02	-4.212081e-04	4.212081e-04	6.913507e-02	-6.955628e-02	0.000000e+00
1.550000000000000e+02	7.878768e-01	1.317181e+00	1.200000e+01	5.000000e+00	-4.212123e-04	6.892141e-02	-6.892141e-02	-4.212123e-04	4.212123e-04	6.892141e-02	-6.934262e-02	0.000000e+00
1.600000000000000e+02	7.878347e-01	1.006550e+00	1.200000e+01	5.000000e+00	-4.212165e-04	6.870906e-02	-6.870906e-02	-4.212165e-04	4.212165e-04	6.870906e-02	-6.913028e-02	0.000000e+00
1.650000000000000e+02	7.877928e-01	6.978270e-01	1.200000e+01	5.000000e+00	-4.212207e-04	6.849802e-02	-6.849802e-02	-4.212207e-04	4.212207e-04	6.849802e-02	-6.891924e-02	0.000000e+00
1.700000000000000e+02	7.877488e-01	3.915886e-01	1.200000e+01	5.000000e+00	-4.212251e-04	6.828477e-02	-6.828477e-02	-4.212251e-04	4.212251e-04	6.828477e-02	-6.870600e-02	0.000000e+00
1.750000000000000e+02	7.870736e-01	2.464250e-01	1.200000e+01	5.000000e+00	-4.212926e-04	6.716329e-02	-6.716329e-02	-4.212926e-04	4.212926e-04	6.716329e-02	-6.758458e-02	0.000000e+00
1.800000000000000e+02	7.859673e-01	2.196342e-01	1.200000e+01	5.000000e+00	-4.214033e-04	6.544647e-02	-6.544647e-02	-4.214033e-04	4.214033e-04	6.544647e-02	-6.586788e-02	0.000000e+00
1.850000000000000e+02	7.848554e-01	2.056603e-01	1.200000e+01	5.000000e+00	-4.215145e-04	6.375319e-02	-6.375319e-02	-4.215145e-04	4.215145e-04	6.375319e-02	-6.417470e-02	0.000000e+00
1.900000000000000e+02	7.837688e-01	1.960766e-01	1.200000e+01	5.000000e+00	-4.216231e-04	6.212591e-02	-6.212591e-02	-4.216231e-04	4.216231e-04	6.212591e-02	-6.254753e-02	0.000000e+00
1.950000000000000e+02	7.827137e-01	1.887217e-01	1.200000e+01	5.000000e+00	-4.217286e-04	6.057066e-02	-6.057066e-02	-4.217286e-04	4.217286e-04	6.057066e-02	-6.099239e-02	0.000000e+00
2.000000000000000e+02	7.816909e-01	1.827225e-01	1.200000e+01	5.000000e+00	-4.218309e-04	5.908639e-02	-5.908639e-02	-4.218309e-04	4.218309e-04	5.908639e-02	-5.950822e-02	0.000000e+00
2.050000000000000e+02	7.807000e-01	1.776375e-01	1.200000e+01	5.000000e+00	-4.219300e-04	5.767006e-02	-5.767006e-02	-4.219300e-04	4.219300e-04	5.767006e-02	-5.809199e-02	0.000000e+00
2.100000000000000e+02	7.797398e-01	1.732136e-01	1.200000e+01	5.000000e+00	-4.220260e-04	5.631803e-02	-5.631803e-02	-4.220260e-04	4.220260e-04	5.631803e-02	-5.674006e-02	0.000000e+00
2.150000000000000e+02	7.788091e-01	1.692917e-01	1.200000e+01	5.000000e+00	-4.221191e-04	5.502655e-02	-5.502655e-02	-4.221191e-04	4.221191e-04	5.502655e-02	-5.544867e-02	0.000000e+00
2.200000000000000e+02	7.779065e-01	1.657652e-01	1.200000e+01	5.000000e+00	-4.222094e-04	5.379198e-02	-5.379198e-02	-4.222094e-04	4.222094e-04	5.379198e-02	-5.421419e-02	0.000000e+00
2.250000000000000e+02	7.770307e-01	1.625587e-01	1.200000e+01	5.000000e+00	-4.222969e-04	5.261085e-02	-5.261085e-02	-4.222969e-04	4.222969e-04	5.261085e-02	-5.303315e-02	0.000000e+00
2.300000000000000e+02	7.761804e-01	1.596174e-01	1.200000e+01	5.000000e+00	-4.223820e-04	5.147992e-02	-5.147992e-02	-4.223820e-04	4.223820e-04	5.147992e-02	-5.190231e-02	0.000000e+00
2.350000000000000e+02	7.753543e-01	1.568996e-01	1.200000e+01	5.000000e+00	-4.224646e-04	5.039617e-02	-5.039617e-02	-4.224646e-04	4.224646e-04	5.039617e-02	-5.081864e-02	0.000000e+00
2.400000000000000e+02	7.745512e-01	1.543730e-01	1.200000e+01	5.000000e+00	-4.225449e-04	4.935678e-02	-4.935678e-02	-4.225449e-04	4.225449e-04	4.935678e-02	-4.977933e-02	0.000000e+00
2.450000000000000e+02	7.737701e-01	1.520123e-01	1.200000e+01	5.000000e+00	-4.226230e-04	4.835913e-02	-4.835913e-02	-4.226230e-04	4.226230e-04	4.835913e-02	-4.878176e-02	0.000000e+00
2.500000000000000e+02	7.730100e-01	1.497968e-01	1.200000e+01	5.000000e+00	-4.226990e-04	4.740081e-02	-4.740081e-02	-4.226990e-04	4.226990e-04	4.740081e-02	-4.782351e-02	0.000000e+00
2.550000000000000e+02	7.722697e-01	1.477097e-01	1.200000e+01	5.000000e+00	-4.227730e-04	4.647957e-02	-4.647957e-02	-4.227730e-04	4.227730e-04	4.647957e-02	-4.690234e-02	0.000000e+00
2.600000000000000e+02	7.715485e-01	1.457370e-01	1.200000e+01	5.000000e+00	-4.228452e-04	4.559332e-02	-4.559332e-02	-4.228452e-04	4.228452e-04	4.559332e-02	-4.601616e-02	0.000000e+00
2.650000000000000e+02	7.708454e-01	1.438670e-01	1.200000e+01	5.000000e+00	-4.229154e-04	4.474013e-02	-4.474013e-02	-4.229154e-04	4.229154e-04	4.474013e-02	-4.516304e-02	0.000000e+00
2.700000000000000e+02	7.701597e-01	1.420897e-01	1.200000e+01	5.000000e+00	-4.229840e-04	4.391818e-02	-4.391818e-02	-4.229840e-04	4.229840e-04	4.391818e-02	-4.434117e-02	0.000000e+00
2.750000000000000e+02	7.694907e-01	1.403965e-01	1.200000e+01	5.000000e+00	-4.230509e-04	4.312583e-02	-4.312583e-02	-4.230509e-04	4.230509e-04	4.312583e-02	-4.354888e-02	0.000000e+00
2.800000000000000e+02	7.688375e-01	1.387800e-01	1.200000e+01	5.000000e+00	-4.231163e-04	4.236150e-02	-4.236150e-02	-4.231163e-04	4.231163e-04	4.236150e-02	-4.278462e-02	0.000000e+00
2.850000000000000e+02	7.681994e-01	1.372338e-01	1.200000e+01	5.000000e+00	-4.231801e-04	4.162374e-02	-4.162374e-02	-4.231801e-04	4.231801e-04	4.162374e-02	-4.204692e-02	0.000000e+00
2.900000000000000e+02	7.675760e-01	1.357523e-01	1.200000e+01	5.000000e+00	-4.232424e-04	4.091120e-02	-4.091120e-02	-4.232424e-04	4.232424e-04	4.091120e-02	-4.133444e-02	0.000000e+00
2.950000000000000e+02	7.669666e-01	1.343305e-01	1.200000e+01	5.000000e+00	-4.233033e-04	4.022261e-02	-4.022261e-02	-4.233033e-04	4.233033e-04	4.022261e-02	-4.064591e-02	0.000000e+00
3.000000000000000e+02	7.663706e-01	1.329640e-01	1.200000e+01	5.000000e+00	-4.233629e-04	3.955679e-02	-3.955679e-02	-4.233629e-04	4.233629e-04	3.955679e-02	-3.998015e-02	0.000000e+00
3.050000000000000e+02	7.657874e-01	1.316488e-01	1.200000e+01	5.000000e+00	-4.234213e-04	3.891263e-02	-3.891263e-02	-4.234213e-04	4.234213e-04	3.891263e-02	-3.933605e-02	0.000000e+00
3.100000000000000e+02	7.652167e-01	1.303814e-01	1.200000e+01	5.000000e+00	-4.234783e-04	3.828909e-02	-3.828909e-02	-4.234783e-04	4.234783e-04	3.828909e-02	-3.871257e-02	0.000000e+00
3.150000000000000e+02	7.646579e-01	1.291587e-01	1.200000e+01	5.000000e+00	-4.235342e-04	3.768521e-02	-3.768521e-02	-4.235342e-04	4.235342e-04	3.768521e-02	-3.810874e-02	0.000000e+00
3.200000000000000e+02	7.641106e-01	1.279777e-01	1.200000e+01	5.000000e+00	-4.235889e-04	3.710007e-02	-3.710007e-02	-4.235889e-04	4.235889e-04	3.710007e-02	-3.752366e-02	0.000000e+00
3.250000000000000e+02	7.635743e-01	1.268360e-01	1.200000e+01	5.000000e+00	-4.236426e-04	3.653281e-02	-3.653281e-02	-4.236426e-04	4.236426e-04	3.653281e-02	-3.695646e-02	0.000000e+00
3.300000000000000e+02	7.630486e-01	1.257311e-01	1.200000e+01	5.000000e+00	-4.236951e-04	3.598263e-02	-3.598263e-02	-4.236951e-04	4.236951e-04	3.598263e-02	-3.640633e-02	0.000000e+00
3.350000000000000e+02	7.625332e-01	1.246609e-01	1.200000e+01	5.000000e+00	-4.237467e-04	3.544877e-02	-3.544877e-02	-4.237467e-04	4.237467e-04	3.544877e-02	-3.587252e-02	0.000000e+00
3.400000000000000e+02	7.620277e-01	1.236235e-01	1.200000e+01	5.000000e+00	-4.237972e-04	3.493052e-02	-3.493052e-02	-4.237972e-04	4.237972e-04	3.493052e-02	-3.535432e-02	0.000000e+00
3.450000000000000e+02	7.615318e-01	1.226169e-01	1.200000e+01	5.000000e+00	-4.238468e-04	3.442720e-02	-3.442720e-02	-4.238468e-04	4.238468e-04	3.442720e-02	-3.485104e-02	0.000000e+00
3.500000000000000e+02	7.610452e-01	1.216396e-01	1.200000e+01	5.000000e+00	-4.238955e-04	3.393817e-02	-3.393817e-02	-4.238955e-04	4.238955e-04	3.393817e-02	-3.436207e-02	0.000000e+00
3.550000000000000e+02	7.605674e-01	1.206901e-01	1.200000e+01	5.000000e+00	-4.239433e-04	3.346284e-02	-3.346284e-02	-4.239433e-04	4.239433e-04	3.346284e-02	-3.388679e-02	0.000000e+00
3.600000000000000e+02	7.600982e-01	1.197669e-01	1.200000e+01	5.000000e+00	-4.239902e-04	3.300065e-02	-3.300065e-02	-4.239902e-04	4.239902e-04	3.300065e-02	-3.342464e-02	0.000000e+00
3.650000000000000e+02	7.596374e-01	1.188687e-01	1.200000e+01	5.000000e+00	-4.240363e-04	3.255105e-02	-3.255105e-02	-4.240363e-04	4.240363e-04	3.255105e-02	-3.297508e-02	0.000000e+00
3.700000000000000e+02	7.591847e-01	1.179943e-01	1.200000e+01	5.000000e+00	-4.240815e-04	3.211353e-02	-3.211353e-02	-4.240815e-04	4.240815e-04	3.211353e-02	-3.253761e-02	0.000000e+00
3.750000000000000e+02	7.587397e-01	1.171425e-01	1.200000e+01	5.000000e+00	-4.241260e-04	3.168762e-02	-3.168762e-02	-4.241260e-04	4.241260e-04	3.168762e-02	-3.211175e-02	0.000000e+00
3.800000000000000e+02	7.583023e-01	1.163124e-01	1.200000e+01	5.000000e+00	-4.241698e-04	3.127286e-02	-3.127286e-02	-4.241698e-04	4.241698e-04	3.127286e-02	-3.169703e-02	0.000000e+00
3.850000000000000e+02	7.578723e-01	1.155029e-01	1.200000e+01	5.000000e+00	-4.242128e-04	3.086882e-02	-3.086882e-02	-4.242128e-04	4.242128e-04	3.086882e-02	-3.129304e-02	0.000000e+00
3.900000000000000e+02	7.574494e-01	1.147131e-01	1.200000e+01	5.000000e+00	-4.242551e-04	3.047509e-02	-3.047509e-02	-4.242551e-04	4.242551e-04	3.047509e-02	-3.089935e-02	0.000000e+00
3.950000000000000e+02	7.570334e-01	1.139422e-01	1.200000e+01	5.000000e+00	-4.242967e-04	3.009129e-02	-3.009129e-02	-4.242967e-04	4.242967e-04	3.009129e-02	-3.051558e-02	0.000000e+00
4.000000000000000e+02	7.566241e-01	1.131894e-01	1.200000e+01	5.000000e+00	-4.243376e-04	2.971703e-02	-2.971703e-02	-4.243376e-04	4.243376e-04	2.971703e-02	-3.014136e-02	0.000000e+00
4.050000000000000e+02	7.562213e-01	1.124538e-01	1.200000e+01	5.000000e+00	-4.243779e-04	2.935197e-02	-2.935197e-02	-4.243779e-04	4.243779e-04	2.935197e-02	-2.977634e-02	0.000000e+00
4.100000000000000e+02	7.558247e-01	1.117349e-01	1.200000e+01	5.000000e+00	-4.244175e-04	2.899577e-02	-2.899577e-02	-4.244175e-04	4.244175e-04	2.899577e-02	-2.942019e-02	0.000000e+00
4.150000000000000e+02	7.554344e-01	1.110318e-01	1.200000e+01	5.000000e+00	-4.244565e-04	2.864812e-02	-2.864812e-02	-4.244565e-04	4.244565e-04	2.864812e-02	-2.907257e-02	0.000000e+00
4.200000000000000e+02	7.550499e-01	1.103441e-01	1.200000e+01	5.000000e+00	-4.244950e-04	2.830870e-02	-2.830870e-02	-4.244950e-04	4.244950e-04	2.830870e-02	-2.873320e-02	0.000000e+00
4.250000000000000e+02	7.546713e-01	1.096711e-01	1.200000e+01	5.000000e+00	-4.245329e-04	2.797724e-02	-2.797724e-02	-4.245329e-04	4.245329e-04	2.797724e-02	-2.840178e-02	0.000000e+00
4.300000000000000e+02	7.542983e-01	1.090122e-01	1.200000e+01	5.000000e+00	-4.245702e-04	2.765346e-02	-2.765346e-02	-4.245702e-04	4.245702e-04	2.765346e-02	-2.807803e-02	0.000000e+00
4.350000000000000e+02	7.539308e-01	1.083670e-01	1.200000e+01	5.000000e+00	-4.246069e-04	2.733709e-02	-2.733709e-02	-4.246069e-04	4.246069e-04	2.733709e-02	-2.776169e-02	0.000000e+00
4.400000000000000e+02	7.535686e-01	1.077349e-01	1.200000e+01	5.000000e+00	-4.246431e-04	2.702788e-02	-2.702788e-02	-4.246431e-04	4.246431e-04	2.702788e-02	-2.745252e-02	0.000000e+00
4.450000000000000e+02	7.532116e-01	1.071154e-01	1.200000e+01	5.000000e+00	-4.246788e-04	2.672558e-02	-2.672558e-02	-4.246788e-04	4.246788e-04	2.672558e-02	-2.715026e-02	0.000000e+00
4.500000000000000e+02	7.528597e-01	1.065081e-01	1.200000e+01	5.000000e+00	-4.247140e-04	2.642998e-02	-2.642998e-02	-4.247140e-04	4.247140e-04	2.642998e-02	-2.685470e-02	0.000000e+00
4.550000000000000e+02	7.525126e-01	1.059126e-01	1.200000e+01	5.000000e+00	-4.247487e-04	2.614085e-02	-2.614085e-02	-4.247487e-04	4.247487e-04	2.614085e-02	-2.656560e-02	0.000000e+00
4.600000000000000e+02	7.521704e-01	1.053284e-01	1.200000e+01	5.000000e+00	-4.247829e-04	2.585798e-02	-2.585798e-02	-4.247829e-04	4.247829e-04	2.585798e-02	-2.628276e-02	0.000000e+00
4.650000000000000e+02	7.518329e-01	1.047553e-01	1.200000e+01	5.000000e+00	-4.248167e-04	2.558117e-02	-2.558117e-02	-4.248167e-04	4.248167e-04	2.558117e-02	-2.600599e-02	0.000000e+00
4.700000000000000e+02	7.515000e-01	1.041927e-01	1.200000e+01	5.000000e+00	-4.248500e-04	2.531023e-02	-2.531023e-02	-4.248500e-04	4.248500e-04	2.531023e-02	-2.573508e-02	0.000000e+00
4.750000000000000e+02	7.511714e-01	1.036404e-01	1.200000e+01	5.000000e+00	-4.248829e-04	2.504497e-02	-2.504497e-02	-4.248829e-04	4.248829e-04	2.504497e-02	-2.546985e-02	0.000000e+00
4.800000000000000e+02	7.508472e-01	1.030980e-01	1.200000e+01	5.000000e+00	-4.249153e-04	2.478521e-02	-2.478521e-02	-4.249153e-04	4.249153e-04	2.478521e-02	-2.521013e-02	0.000000e+00
4.850000000000000e+02	7.505273e-01	1.025653e-01	1.200000e+01	5.000000e+00	-4.249473e-04	2.453079e-02	-2.453079e-02	-4.249473e-04	4.249473e-04	2.453079e-02	-2.495574e-02	0.000000e+00
4.900000000000000e+02	7.502115e-01	1.020419e-01	1.200000e+01	5.000000e+00	-4.249788e-04	2.428155e-02	-2.428155e-02	-4.249788e-04	4.249788e-04	2.428155e-02	-2.470653e-02	0.000000e+00
4.950000000000000e+02	7.498997e-01	1.015274e-01	1.200000e+01	5.000000e+00	-4.250100e-04	2.403732e-02	-2.403732e-02	-4.250100e-04	4.250100e-04	2.403732e-02	-2.446233e-02	0.000000e+00
5.000000000000000e+02	7.495919e-01	1.010218e-01	1.200000e+01	5.000000e+00	-4.250408e-04	2.379796e-02	-2.379796e-02	-4.250408e-04	4.250408e-04	2.379796e-02	-2.422300e-02	0.000000e+00
5.050000000000000e+02	7.492879e-01	1.005246e-01	1.200000e+01	5.000000e+00	-4.250712e-04	2.356332e-02	-2.356332e-02	-4.250712e-04	4.250712e-04	2.356332e-02	-2.398839e-02	0.000000e+00
5.100000000000000e+02	7.489877e-01	1.000356e-01	1.200000e+01	5.000000e+00	-4.251012e-04	2.333326e-02	-2.333326e-02	-4.251012e-04	4.251012e-04	2.333326e-02	-2.375836e-02	0.000000e+00
5.150000000000000e+02	7.486911e-01	9.955465e-02	1.200000e+01	5.000000e+00	-4.251309e-04	2.310766e-02	-2.310766e-02	-4.251309e-04	4.251309e-04	2.310766e-02	-2.353279e-02	0.000000e+00
5.200000000000000e+02	7.483982e-01	9.908143e-02	1.200000e+01	5.000000e+00	-4.251602e-04	2.288638e-02	-2.288638e-02	-4.251602e-04	4.251602e-04	2.288638e-02	-2.331154e-02	0.000000e+00
5.250000000000000e+02	7.481088e-01	9.861576e-02	1.200000e+01	5.000000e+00	-4.251891e-04	2.266930e-02	-2.266930e-02	-4.251891e-04	4.251891e-04	2.266930e-02	-2.309449e-02	0.000000e+00
5.300000000000000e+02	7.478228e-01	9.815741e-02	1.200000e+01	5.000000e+00	-4.252177e-04	2.245631e-02	-2.245631e-02	-4.252177e-04	4.252177e-04	2.245631e-02	-2.288152e-02	0.000000e+00
5.350000000000000e+02	7.475402e-01	9.770617e-02	1.200000e+01	5.000000e+00	-4.252460e-04	2.224728e-02	-2.224728e-02	-4.252460e-04	4.252460e-04	2.224728e-02	-2.267252e-02	0.000000e+00
5.400000000000000e+02	7.472609e-01	9.726186e-02	1.200000e+01	5.000000e+00	-4.252739e-04	2.204211e-02	-2.204211e-02	-4.252739e-04	4.252739e-04	2.204211e-02	-2.246738e-02	0.000000e+00
5.450000000000000e+02	7.469848e-01	9.682428e-02	1.200000e+01	5.000000e+00	-4.253015e-04	2.184069e-02	-2.184069e-02	-4.253015e-04	4.253015e-04	2.184069e-02	-2.226599e-02	0.000000e+00
5.500000000000000e+02	7.467119e-01	9.639325e-02	1.200000e+01	5.000000e+00	-4.253288e-04	2.164292e-02	-2.164292e-02	-4.253288e-04	4.253288e-04	2.164292e-02	-2.206825e-02	0.000000e+00
5.550000000000000e+02	7.464420e-01	9.596860e-02	1.200000e+01	5.000000e+00	-4.253558e-04	2.144871e-02	-2.144871e-02	-4.253558e-04	4.253558e-04	2.144871e-02	-2.187406e-02	0.000000e+00
5.600000000000000e+02	7.461752e-01	9.555017e-02	1.200000e+01	5.000000e+00	-4.253825e-04	2.125795e-02	-2.125795e-02	-4.253825e-04	4.253825e-04	2.125795e-02	-2.168333e-02	0.000000e+00
5.650000000000000e+02	7.459113e-01	9.513778e-02	1.200000e+01	5.000000e+00	-4.254089e-04	2.107055e-02	-2.107055e-02	-4.254089e-04	4.254089e-04	2.107055e-02	-2.149596e-02	0.000000e+00
5.700000000000000e+02	7.456504e-01	9.473129e-02	1.200000e+01	5.000000e+00	-4.254350e-04	2.088644e-02	-2.088644e-02	-4.254350e-04	4.254350e-04	2.088644e-02	-2.131187e-02	0.000000e+00
5.750000000000000e+02	7.453922e-01	9.433055e-02	1.200000e+01	5.000000e+00	-4.254608e-04	2.070551e-02	-2.070551e-02	-4.254608e-04	4.254608e-04	2.070551e-02	-2.113097e-02	0.000000e+00
5.800000000000000e+02	7.451369e-01	9.393541e-02	1.200000e+01	5.000000e+00	-4.254863e-04	2.052770e-02	-2.052770e-02	-4.254863e-04	4.254863e-04	2.052770e-02	-2.095318e-02	0.000000e+00
5.850000000000000e+02	7.448843e-01	9.354573e-02	1.200000e+01	5.000000e+00	-4.255116e-04	2.035291e-02	-2.035291e-02	-4.255116e-04	4.255116e-04	2.035291e-02	-2.077843e-02	0.000000e+00
5.900000000000000e+02	7.446344e-01	9.316138e-02	1.200000e+01	5.000000e+00	-4.255366e-04	2.018108e-02	-2.018108e-02	-4.255366e-04	4.255366e-04	2.018108e-02	-2.060662e-02	0.000000e+00
5.950000000000000e+02	7.443871e-01	9.278223e-02	1.200000e+01	5.000000e+00	-4.255613e-04	2.001213e-02	-2.001213e-02	-4.255613e-04	4.255613e-04	2.001213e-02	-2.043769e-02	0.000000e+00
6.000000000000000e+02	7.441424e-01	9.240815e-02	1.200000e+01	5.000000e+00	-4.255857e-04	1.984599e-02	-1.984599e-02	-4.255857e-04	4.255857e-04	1.984599e-02	-2.027157e-02	0.000000e+00
6.050000000000000e+02	7.439002e-01	9.203903e-02	1.200000e+01	5.000000e+00	-4.256100e-04	1.968258e-02	-1.968258e-02	-4.256100e-04	4.256100e-04	1.968258e-02	-2.010819e-02	0.000000e+00
6.100000000000000e+02	7.436605e-01	9.167475e-02	1.200000e+01	5.000000e+00	-4.256339e-04	1.952185e-02	-1.952185e-02	-4.256339e-04	4.256339e-04	1.952185e-02	-1.994748e-02	0.000000e+00
6.150000000000000e+02	7.434233e-01	9.131519e-02	1.200000e+01	5.000000e+00	-4.256577e-04	1.936371e-02	-1.936371e-02	-4.256577e-04	4.256577e-04	1.936371e-02	-1.978937e-02	0.000000e+00
6.200000000000000e+02	7.431884e-01	9.096041e-02	1.200000e+01	5.000000e+00	-4.256812e-04	1.920813e-02	-1.920813e-02	-4.256812e-04	4.256812e-04	1.920813e-02	-1.963381e-02	0.000000e+00
6.250000000000000e+02	7.429559e-01	9.060998e-02	1.200000e+01	5.000000e+00	-4.257044e-04	1.905502e-02	-1.905502e-02	-4.257044e-04	4.257044e-04	1.905502e-02	-1.948073e-02	0.000000e+00
6.300000000000000e+02	7.427257e-01	9.026397e-02	1.200000e+01	5.000000e+00	-4.257274e-04	1.890434e-02	-1.890434e-02	-4.257274e-04	4.257274e-04	1.890434e-02	-1.933007e-02	0.000000e+00
6.350000000000000e+02	7.424977e-01	8.992227e-02	1.200000e+01	5.000000e+00	-4.257502e-04	1.875603e-02	-1.875603e-02	-4.257502e-04	4.257502e-04	1.875603e-02	-1.918178e-02	0.000000e+00
