r	V(bout)	V(cout)	V(n001)	V(n002)	I(R1)	I(R2)	I(VCC)	I(Vb)	Ib(Q1)	Ic(Q1)	Ie(Q1)	Is(Q1)
1.000000000000000e+02	7.347739e-01	1.012217e+01	1.200000e+01	5.000000e+00	-9.074949e-05	1.877826e-02	-1.877826e-02	-9.074949e-05	9.074949e-05	1.877826e-02	-1.886901e-02	0.000000e+00
1.500000000000000e+02	7.347428e-01	9.206811e+00	1.200000e+01	5.000000e+00	-9.075015e-05	1.862126e-02	-1.862126e-02	-9.075015e-05	9.075015e-05	1.862126e-02	-1.871201e-02	0.000000e+00
2.000000000000000e+02	7.347121e-01	8.306628e+00	1.200000e+01	5.000000e+00	-9.075081e-05	1.846686e-02	-1.846686e-02	-9.075081e-05	9.075081e-05	1.846686e-02	-1.855761e-02	0.000000e+00
2.500000000000000e+02	7.346818e-01	7.421251e+00	1.200000e+01	5.000000e+00	-9.075145e-05	1.831499e-02	-1.831499e-02	-9.075145e-05	9.075145e-05	1.831499e-02	-1.840574e-02	0.000000e+00
3.000000000000000e+02	7.346522e-01	6.550318e+00	1.200000e+01	5.000000e+00	-9.075208e-05	1.816561e-02	-1.816561e-02	-9.075208e-05	9.075208e-05	1.816561e-02	-1.825636e-02	0.000000e+00
3.500000000000000e+02	7.346230e-01	5.693478e+00	1.200000e+01	5.000000e+00	-9.075271e-05	1.801863e-02	-1.801863e-02	-9.075271e-05	9.075271e-05	1.801863e-02	-1.810939e-02	0.000000e+00
4.000000000000000e+02	7.345942e-01	4.850392e+00	1.200000e+01	5.000000e+00	-9.075332e-05	1.787402e-02	-1.787402e-02	-9.075332e-05	9.075332e-05	1.787402e-02	-1.796477e-02	0.000000e+00
4.500000000000000e+02	7.345659e-01	4.020733e+00	1.200000e+01	5.000000e+00	-9.075391e-05	1.773171e-02	-1.773171e-02	-9.075391e-05	9.075391e-05	1.773171e-02	-1.782246e-02	0.000000e+00
5.000000000000000e+02	7.345381e-01	3.204181e+00	1.200000e+01	5.000000e+00	-9.075451e-05	1.759164e-02	-1.759164e-02	-9.075451e-05	9.075451e-05	1.759164e-02	-1.768239e-02	0.000000e+00
5.500000000000000e+02	7.345107e-01	2.400429e+00	1.200000e+01	5.000000e+00	-9.075509e-05	1.745376e-02	-1.745376e-02	-9.075509e-05	9.075509e-05	1.745376e-02	-1.754452e-02	0.000000e+00
6.000000000000000e+02	7.344837e-01	1.609179e+00	1.200000e+01	5.000000e+00	-9.075567e-05	1.731803e-02	-1.731803e-02	-9.075567e-05	9.075567e-05	1.731803e-02	-1.740879e-02	0.000000e+00
6.500000000000000e+02	7.344571e-01	8.301418e-01	1.200000e+01	5.000000e+00	-9.075623e-05	1.718440e-02	-1.718440e-02	-9.075623e-05	9.075623e-05	1.718440e-02	-1.727515e-02	0.000000e+00
7.000000000000000e+02	7.339792e-01	2.241369e-01	1.200000e+01	5.000000e+00	-9.076640e-05	1.682266e-02	-1.682266e-02	-9.076640e-05	9.076640e-05	1.682266e-02	-1.691343e-02	0.000000e+00
7.500000000000000e+02	7.320428e-01	1.798449e-01	1.200000e+01	5.000000e+00	-9.080760e-05	1.576021e-02	-1.576021e-02	-9.080760e-05	9.080760e-05	1.576021e-02	-1.585102e-02	0.000000e+00
8.000000000000000e+02	7.301810e-01	1.635392e-01	1.200000e+01	5.000000e+00	-9.084721e-05	1.479558e-02	-1.479558e-02	-9.084721e-05	9.084721e-05	1.479558e-02	-1.488642e-02	0.000000e+00
8.500000000000000e+02	7.284352e-01	1.533273e-01	1.200000e+01	5.000000e+00	-9.088436e-05	1.393726e-02	-1.393726e-02	-9.088436e-05	9.088436e-05	1.393726e-02	-1.402815e-02	0.000000e+00
9.000000000000000e+02	7.267981e-01	1.458602e-01	1.200000e+01	5.000000e+00	-9.091919e-05	1.317127e-02	-1.317127e-02	-9.091919e-05	9.091919e-05	1.317127e-02	-1.326219e-02	0.000000e+00
9.500000000000000e+02	7.252592e-01	1.399666e-01	1.200000e+01	5.000000e+00	-9.095193e-05	1.248425e-02	-1.248425e-02	-9.095193e-05	9.095193e-05	1.248425e-02	-1.257520e-02	0.000000e+00
1.000000000000000e+03	7.238084e-01	1.350967e-01	1.200000e+01	5.000000e+00	-9.098280e-05	1.186490e-02	-1.186490e-02	-9.098280e-05	9.098280e-05	1.186490e-02	-1.195589e-02	0.000000e+00
1.050000000000000e+03	7.224368e-01	1.309479e-01	1.200000e+01	5.000000e+00	-9.101199e-05	1.130386e-02	-1.130386e-02	-9.101199e-05	9.101199e-05	1.130386e-02	-1.139487e-02	0.000000e+00
1.100000000000000e+03	7.211369e-01	1.273353e-01	1.200000e+01	5.000000e+00	-9.103964e-05	1.079333e-02	-1.079333e-02	-9.103964e-05	9.103964e-05	1.079333e-02	-1.088437e-02	0.000000e+00
1.150000000000000e+03	7.199016e-01	1.241375e-01	1.200000e+01	5.000000e+00	-9.106592e-05	1.032684e-02	-1.032684e-02	-9.106592e-05	9.106592e-05	1.032684e-02	-1.041790e-02	0.000000e+00
1.200000000000000e+03	7.187253e-01	1.212702e-01	1.200000e+01	5.000000e+00	-9.109095e-05	9.898941e-03	-9.898941e-03	-9.109095e-05	9.109095e-05	9.898941e-03	-9.990033e-03	0.000000e+00
1.250000000000000e+03	7.176028e-01	1.186728e-01	1.200000e+01	5.000000e+00	-9.111483e-05	9.505061e-03	-9.505061e-03	-9.111483e-05	9.111483e-05	9.505061e-03	-9.596176e-03	0.000000e+00
1.300000000000000e+03	7.165295e-01	1.162998e-01	1.200000e+01	5.000000e+00	-9.113767e-05	9.141308e-03	-9.141308e-03	-9.113767e-05	9.113767e-05	9.141308e-03	-9.232446e-03	0.000000e+00
1.350000000000000e+03	7.155017e-01	1.141165e-01	1.200000e+01	5.000000e+00	-9.115954e-05	8.804359e-03	-8.804359e-03	-9.115954e-05	9.115954e-05	8.804359e-03	-8.895517e-03	0.000000e+00
1.400000000000000e+03	7.145155e-01	1.120956e-01	1.200000e+01	5.000000e+00	-9.118052e-05	8.491361e-03	-8.491361e-03	-9.118052e-05	9.118052e-05	8.491361e-03	-8.582541e-03	0.000000e+00
1.450000000000000e+03	7.135680e-01	1.102153e-01	1.200000e+01	5.000000e+00	-9.120068e-05	8.199852e-03	-8.199852e-03	-9.120068e-05	9.120068e-05	8.199852e-03	-8.291052e-03	0.000000e+00
1.500000000000000e+03	7.126564e-01	1.084580e-01	1.200000e+01	5.000000e+00	-9.122008e-05	7.927694e-03	-7.927694e-03	-9.122008e-05	9.122008e-05	7.927694e-03	-8.018915e-03	0.000000e+00
1.550000000000000e+03	7.117782e-01	1.068090e-01	1.200000e+01	5.000000e+00	-9.123876e-05	7.673027e-03	-7.673027e-03	-9.123876e-05	9.123876e-05	7.673027e-03	-7.764265e-03	0.000000e+00
1.600000000000000e+03	7.109311e-01	1.052564e-01	1.200000e+01	5.000000e+00	-9.125678e-05	7.434215e-03	-7.434215e-03	-9.125678e-05	9.125678e-05	7.434215e-03	-7.525472e-03	0.000000e+00
1.650000000000000e+03	7.101130e-01	1.037898e-01	1.200000e+01	5.000000e+00	-9.127419e-05	7.209824e-03	-7.209824e-03	-9.127419e-05	9.127419e-05	7.209824e-03	-7.301099e-03	0.000000e+00
1.700000000000000e+03	7.093222e-01	1.024006e-01	1.200000e+01	5.000000e+00	-9.129102e-05	6.998588e-03	-6.998588e-03	-9.129102e-05	9.129102e-05	6.998588e-03	-7.089879e-03	0.000000e+00
1.750000000000000e+03	7.085569e-01	1.010814e-01	1.200000e+01	5.000000e+00	-9.130730e-05	6.799382e-03	-6.799382e-03	-9.130730e-05	9.130730e-05	6.799382e-03	-6.890689e-03	0.000000e+00
1.800000000000000e+03	7.078156e-01	9.982578e-02	1.200000e+01	5.000000e+00	-9.132307e-05	6.611208e-03	-6.611208e-03	-9.132307e-05	9.132307e-05	6.611208e-03	-6.702531e-03	0.000000e+00
1.850000000000000e+03	7.070970e-01	9.862814e-02	1.200000e+01	5.000000e+00	-9.133836e-05	6.433174e-03	-6.433174e-03	-9.133836e-05	9.133836e-05	6.433174e-03	-6.524513e-03	0.000000e+00
1.900000000000000e+03	7.063997e-01	9.748361e-02	1.200000e+01	5.000000e+00	-9.135320e-05	6.264482e-03	-6.264482e-03	-9.135320e-05	9.135320e-05	6.264482e-03	-6.355836e-03	0.000000e+00
1.950000000000000e+03	7.057227e-01	9.638788e-02	1.200000e+01	5.000000e+00	-9.136760e-05	6.104417e-03	-6.104417e-03	-9.136760e-05	9.136760e-05	6.104417e-03	-6.195784e-03	0.000000e+00
2.000000000000000e+03	7.050647e-01	9.533717e-02	1.200000e+01	5.000000e+00	-9.138160e-05	5.952331e-03	-5.952331e-03	-9.138160e-05	9.138160e-05	5.952331e-03	-6.043713e-03	0.000000e+00
2.050000000000000e+03	7.044248e-01	9.432811e-02	1.200000e+01	5.000000e+00	-9.139522e-05	5.807645e-03	-5.807645e-03	-9.139522e-05	9.139522e-05	5.807645e-03	-5.899040e-03	0.000000e+00
2.100000000000000e+03	7.038021e-01	9.335767e-02	1.200000e+01	5.000000e+00	-9.140847e-05	5.669830e-03	-5.669830e-03	-9.140847e-05	9.140847e-05	5.669830e-03	-5.761238e-03	0.000000e+00
2.150000000000000e+03	7.031958e-01	9.242316e-02	1.200000e+01	5.000000e+00	-9.142137e-05	5.538408e-03	-5.538408e-03	-9.142137e-05	9.142137e-05	5.538408e-03	-5.629829e-03	0.000000e+00
2.200000000000000e+03	7.026050e-01	9.152215e-02	1.200000e+01	5.000000e+00	-9.143394e-05	5.412945e-03	-5.412945e-03	-9.143394e-05	9.143394e-05	5.412945e-03	-5.504379e-03	0.000000e+00
2.250000000000000e+03	7.020290e-01	9.065244e-02	1.200000e+01	5.000000e+00	-9.144619e-05	5.293043e-03	-5.293043e-03	-9.144619e-05	9.144619e-05	5.293043e-03	-5.384489e-03	0.000000e+00
2.300000000000000e+03	7.014671e-01	8.981223e-02	1.200000e+01	5.000000e+00	-9.145815e-05	5.178343e-03	-5.178343e-03	-9.145815e-05	9.145815e-05	5.178343e-03	-5.269801e-03	0.000000e+00
2.350000000000000e+03	7.009187e-01	8.899937e-02	1.200000e+01	5.000000e+00	-9.146982e-05	5.068511e-03	-5.068511e-03	-9.146982e-05	9.146982e-05	5.068511e-03	-5.159981e-03	0.000000e+00
2.400000000000000e+03	7.003832e-01	8.821239e-02	1.200000e+01	5.000000e+00	-9.148120e-05	4.963245e-03	-4.963245e-03	-9.148120e-05	9.148120e-05	4.963245e-03	-5.054726e-03	0.000000e+00
2.450000000000000e+03	6.998600e-01	8.744977e-02	1.200000e+01	5.000000e+00	-9.149234e-05	4.862265e-03	-4.862265e-03	-9.149234e-05	9.149234e-05	4.862265e-03	-4.953758e-03	0.000000e+00
2.500000000000000e+03	6.993487e-01	8.671013e-02	1.200000e+01	5.000000e+00	-9.150322e-05	4.765316e-03	-4.765316e-03	-9.150322e-05	9.150322e-05	4.765316e-03	-4.856819e-03	0.000000e+00
2.550000000000000e+03	6.988487e-01	8.599222e-02	1.200000e+01	5.000000e+00	-9.151386e-05	4.672160e-03	-4.672160e-03	-9.151386e-05	9.151386e-05	4.672160e-03	-4.763674e-03	0.000000e+00
2.600000000000000e+03	6.983595e-01	8.529487e-02	1.200000e+01	5.000000e+00	-9.152426e-05	4.582579e-03	-4.582579e-03	-9.152426e-05	9.152426e-05	4.582579e-03	-4.674103e-03	0.000000e+00
2.650000000000000e+03	6.978807e-01	8.461698e-02	1.200000e+01	5.000000e+00	-9.153445e-05	4.496371e-03	-4.496371e-03	-9.153445e-05	9.153445e-05	4.496371e-03	-4.587905e-03	0.000000e+00
2.700000000000000e+03	6.974120e-01	8.395759e-02	1.200000e+01	5.000000e+00	-9.154443e-05	4.413349e-03	-4.413349e-03	-9.154443e-05	9.154443e-05	4.413349e-03	-4.504893e-03	0.000000e+00
2.750000000000000e+03	6.969528e-01	8.331577e-02	1.200000e+01	5.000000e+00	-9.155420e-05	4.333340e-03	-4.333340e-03	-9.155420e-05	9.155420e-05	4.333340e-03	-4.424894e-03	0.000000e+00
2.800000000000000e+03	6.965030e-01	8.269066e-02	1.200000e+01	5.000000e+00	-9.156376e-05	4.256182e-03	-4.256182e-03	-9.156376e-05	9.156376e-05	4.256182e-03	-4.347746e-03	0.000000e+00
2.850000000000000e+03	6.960621e-01	8.208146e-02	1.200000e+01	5.000000e+00	-9.157315e-05	4.181726e-03	-4.181726e-03	-9.157315e-05	9.157315e-05	4.181726e-03	-4.273299e-03	0.000000e+00
2.900000000000000e+03	6.956298e-01	8.148744e-02	1.200000e+01	5.000000e+00	-9.158235e-05	4.109832e-03	-4.109832e-03	-9.158235e-05	9.158235e-05	4.109832e-03	-4.201414e-03	0.000000e+00
2.950000000000000e+03	6.952057e-01	8.090791e-02	1.200000e+01	5.000000e+00	-9.159137e-05	4.040370e-03	-4.040370e-03	-9.159137e-05	9.159137e-05	4.040370e-03	-4.131962e-03	0.000000e+00
3.000000000000000e+03	6.947897e-01	8.034223e-02	1.200000e+01	5.000000e+00	-9.160022e-05	3.973219e-03	-3.973219e-03	-9.160022e-05	9.160022e-05	3.973219e-03	-4.064819e-03	0.000000e+00
3.050000000000000e+03	6.943814e-01	7.978978e-02	1.200000e+01	5.000000e+00	-9.160890e-05	3.908266e-03	-3.908266e-03	-9.160890e-05	9.160890e-05	3.908266e-03	-3.999874e-03	0.000000e+00
3.100000000000000e+03	6.939806e-01	7.925002e-02	1.200000e+01	5.000000e+00	-9.161743e-05	3.845403e-03	-3.845403e-03	-9.161743e-05	9.161743e-05	3.845403e-03	-3.937020e-03	0.000000e+00
3.150000000000000e+03	6.935869e-01	7.872240e-02	1.200000e+01	5.000000e+00	-9.162581e-05	3.784533e-03	-3.784533e-03	-9.162581e-05	9.162581e-05	3.784533e-03	-3.876158e-03	0.000000e+00
3.200000000000000e+03	6.932003e-01	7.820642e-02	1.200000e+01	5.000000e+00	-9.163404e-05	3.725560e-03	-3.725560e-03	-9.163404e-05	9.163404e-05	3.725560e-03	-3.817195e-03	0.000000e+00
3.250000000000000e+03	6.928204e-01	7.770163e-02	1.200000e+01	5.000000e+00	-9.164212e-05	3.668400e-03	-3.668400e-03	-9.164212e-05	9.164212e-05	3.668400e-03	-3.760042e-03	0.000000e+00
3.300000000000000e+03	6.924471e-01	7.720758e-02	1.200000e+01	5.000000e+00	-9.165006e-05	3.612967e-03	-3.612967e-03	-9.165006e-05	9.165006e-05	3.612967e-03	-3.704617e-03	0.000000e+00
3.350000000000000e+03	6.920801e-01	7.672385e-02	1.200000e+01	5.000000e+00	-9.165787e-05	3.559187e-03	-3.559187e-03	-9.165787e-05	9.165787e-05	3.559187e-03	-3.650845e-03	0.000000e+00
3.400000000000000e+03	6.917192e-01	7.625005e-02	1.200000e+01	5.000000e+00	-9.166555e-05	3.506985e-03	-3.506985e-03	-9.166555e-05	9.166555e-05	3.506985e-03	-3.598651e-03	0.000000e+00
3.450000000000000e+03	6.913643e-01	7.578582e-02	1.200000e+01	5.000000e+00	-9.167310e-05	3.456294e-03	-3.456294e-03	-9.167310e-05	9.167310e-05	3.456294e-03	-3.547967e-03	0.000000e+00
3.500000000000000e+03	6.910151e-01	7.533079e-02	1.200000e+01	5.000000e+00	-9.168053e-05	3.407048e-03	-3.407048e-03	-9.168053e-05	9.168053e-05	3.407048e-03	-3.498729e-03	0.000000e+00
3.550000000000000e+03	6.906716e-01	7.488465e-02	1.200000e+01	5.000000e+00	-9.168784e-05	3.359187e-03	-3.359187e-03	-9.168784e-05	9.168784e-05	3.359187e-03	-3.450875e-03	0.000000e+00
3.600000000000000e+03	6.903334e-01	7.444707e-02	1.200000e+01	5.000000e+00	-9.169503e-05	3.312654e-03	-3.312654e-03	-9.169503e-05	9.169503e-05	3.312654e-03	-3.404349e-03	0.000000e+00
3.650000000000000e+03	6.900006e-01	7.401775e-02	1.200000e+01	5.000000e+00	-9.170212e-05	3.267392e-03	-3.267392e-03	-9.170212e-05	9.170212e-05	3.267392e-03	-3.359094e-03	0.000000e+00
3.700000000000000e+03	6.896729e-01	7.359641e-02	1.200000e+01	5.000000e+00	-9.170909e-05	3.223352e-03	-3.223352e-03	-9.170909e-05	9.170909e-05	3.223352e-03	-3.315061e-03	0.000000e+00
3.750000000000000e+03	6.893502e-01	7.318279e-02	1.200000e+01	5.000000e+00	-9.171596e-05	3.180485e-03	-3.180485e-03	-9.171596e-05	9.171596e-05	3.180485e-03	-3.272200e-03	0.000000e+00
3.800000000000000e+03	6.890324e-01	7.277663e-02	1.200000e+01	5.000000e+00	-9.172272e-05	3.138743e-03	-3.138743e-03	-9.172272e-05	9.172272e-05	3.138743e-03	-3.230466e-03	0.000000e+00
3.850000000000000e+03	6.887192e-01	7.237769e-02	1.200000e+01	5.000000e+00	-9.172938e-05	3.098084e-03	-3.098084e-03	-9.172938e-05	9.172938e-05	3.098084e-03	-3.189813e-03	0.000000e+00
3.900000000000000e+03	6.884106e-01	7.198572e-02	1.200000e+01	5.000000e+00	-9.173594e-05	3.058465e-03	-3.058465e-03	-9.173594e-05	9.173594e-05	3.058465e-03	-3.150201e-03	0.000000e+00
3.950000000000000e+03	6.881066e-01	7.160052e-02	1.200000e+01	5.000000e+00	-9.174241e-05	3.019848e-03	-3.019848e-03	-9.174241e-05	9.174241e-05	3.019848e-03	-3.111590e-03	0.000000e+00
4.000000000000000e+03	6.878069e-01	7.122187e-02	1.200000e+01	5.000000e+00	-9.174879e-05	2.982195e-03	-2.982195e-03	-9.174879e-05	9.174879e-05	2.982195e-03	-3.073943e-03	0.000000e+00
4.050000000000000e+03	6.875114e-01	7.084957e-02	1.200000e+01	5.000000e+00	-9.175508e-05	2.945469e-03	-2.945469e-03	-9.175508e-05	9.175508e-05	2.945469e-03	-3.037224e-03	0.000000e+00
4.100000000000000e+03	6.872200e-01	7.048342e-02	1.200000e+01	5.000000e+00	-9.176128e-05	2.909638e-03	-2.909638e-03	-9.176128e-05	9.176128e-05	2.909638e-03	-3.001400e-03	0.000000e+00
4.150000000000000e+03	6.869327e-01	7.012326e-02	1.200000e+01	5.000000e+00	-9.176739e-05	2.874669e-03	-2.874669e-03	-9.176739e-05	9.176739e-05	2.874669e-03	-2.966437e-03	0.000000e+00
4.200000000000000e+03	6.866494e-01	6.976888e-02	1.200000e+01	5.000000e+00	-9.177341e-05	2.840531e-03	-2.840531e-03	-9.177341e-05	9.177341e-05	2.840531e-03	-2.932305e-03	0.000000e+00
4.250000000000000e+03	6.863698e-01	6.942014e-02	1.200000e+01	5.000000e+00	-9.177937e-05	2.807195e-03	-2.807195e-03	-9.177937e-05	9.177937e-05	2.807195e-03	-2.898975e-03	0.000000e+00
4.300000000000000e+03	6.860940e-01	6.907687e-02	1.200000e+01	5.000000e+00	-9.178523e-05	2.774633e-03	-2.774633e-03	-9.178523e-05	9.178523e-05	2.774633e-03	-2.866419e-03	0.000000e+00
4.350000000000000e+03	6.858218e-01	6.873890e-02	1.200000e+01	5.000000e+00	-9.179102e-05	2.742819e-03	-2.742819e-03	-9.179102e-05	9.179102e-05	2.742819e-03	-2.834610e-03	0.000000e+00
4.400000000000000e+03	6.855533e-01	6.840611e-02	1.200000e+01	5.000000e+00	-9.179674e-05	2.711726e-03	-2.711726e-03	-9.179674e-05	9.179674e-05	2.711726e-03	-2.803523e-03	0.000000e+00
4.450000000000000e+03	6.852881e-01	6.807833e-02	1.200000e+01	5.000000e+00	-9.180238e-05	2.681331e-03	-2.681331e-03	-9.180238e-05	9.180238e-05	2.681331e-03	-2.773133e-03	0.000000e+00
4.500000000000000e+03	6.850264e-01	6.775545e-02	1.200000e+01	5.000000e+00	-9.180795e-05	2.651610e-03	-2.651610e-03	-9.180795e-05	9.180795e-05	2.651610e-03	-2.743418e-03	0.000000e+00
4.550000000000000e+03	6.847680e-01	6.743732e-02	1.200000e+01	5.000000e+00	-9.181345e-05	2.622541e-03	-2.622541e-03	-9.181345e-05	9.181345e-05	2.622541e-03	-2.714355e-03	0.000000e+00
4.600000000000000e+03	6.845129e-01	6.712382e-02	1.200000e+01	5.000000e+00	-9.181887e-05	2.594104e-03	-2.594104e-03	-9.181887e-05	9.181887e-05	2.594104e-03	-2.685922e-03	0.000000e+00
4.650000000000000e+03	6.842609e-01	6.681484e-02	1.200000e+01	5.000000e+00	-9.182424e-05	2.566276e-03	-2.566276e-03	-9.182424e-05	9.182424e-05	2.566276e-03	-2.658101e-03	0.000000e+00
4.700000000000000e+03	6.840121e-01	6.651025e-02	1.200000e+01	5.000000e+00	-9.182953e-05	2.539040e-03	-2.539040e-03	-9.182953e-05	9.182953e-05	2.539040e-03	-2.630870e-03	0.000000e+00
4.750000000000000e+03	6.837662e-01	6.620993e-02	1.200000e+01	5.000000e+00	-9.183477e-05	2.512377e-03	-2.512377e-03	-9.183477e-05	9.183477e-05	2.512377e-03	-2.604212e-03	0.000000e+00
4.800000000000000e+03	6.835233e-01	6.591379e-02	1.200000e+01	5.000000e+00	-9.183993e-05	2.486268e-03	-2.486268e-03	-9.183993e-05	9.183993e-05	2.486268e-03	-2.578108e-03	0.000000e+00
4.850000000000000e+03	6.832833e-01	6.562172e-02	1.200000e+01	5.000000e+00	-9.184504e-05	2.460697e-03	-2.460697e-03	-9.184504e-05	9.184504e-05	2.460697e-03	-2.552542e-03	0.000000e+00
4.900000000000000e+03	6.830462e-01	6.533362e-02	1.200000e+01	5.000000e+00	-9.185008e-05	2.435646e-03	-2.435646e-03	-9.185008e-05	9.185008e-05	2.435646e-03	-2.527496e-03	0.000000e+00
4.950000000000000e+03	6.828119e-01	6.504939e-02	1.200000e+01	5.000000e+00	-9.185506e-05	2.411101e-03	-2.411101e-03	-9.185506e-05	9.185506e-05	2.411101e-03	-2.502956e-03	0.000000e+00
5.000000000000000e+03	6.825802e-01	6.476895e-02	1.200000e+01	5.000000e+00	-9.186000e-05	2.387046e-03	-2.387046e-03	-9.186000e-05	9.186000e-05	2.387046e-03	-2.478906e-03	0.000000e+00
