Freq.	V(ch2)/V(ch1)
1.00000000000000e+01	(-3.21089711821473e+01dB,8.92872932152391e+01°)
1.00695555005672e+01	(-3.20487745631086e+01dB,8.92823364642138e+01°)
1.01395947979003e+01	(-3.19885780749906e+01dB,8.92773452471142e+01°)
1.02101212570719e+01	(-3.19283817196200e+01dB,8.92723193244376e+01°)
1.02811382665607e+01	(-3.18681854988495e+01dB,8.92672584550205e+01°)
1.03526492384138e+01	(-3.18079894145574e+01dB,8.92621623960270e+01°)
1.04246576084112e+01	(-3.17477934686482e+01dB,8.92570309029367e+01°)
1.04971668362307e+01	(-3.16875976630530e+01dB,8.92518637295340e+01°)
1.05701804056138e+01	(-3.16274019997299e+01dB,8.92466606278956e+01°)
1.06437018245336e+01	(-3.15672064806641e+01dB,8.92414213483792e+01°)
1.07177346253629e+01	(-3.15070111078689e+01dB,8.92361456396116e+01°)
1.07922823650443e+01	(-3.14468158833852e+01dB,8.92308332484766e+01°)
1.08673486252606e+01	(-3.13866208092827e+01dB,8.92254839201031e+01°)
1.09429370126074e+01	(-3.13264258876599e+01dB,8.92200973978531e+01°)
1.10190511587661e+01	(-3.12662311206446e+01dB,8.92146734233092e+01°)
1.10956947206785e+01	(-3.12060365103940e+01dB,8.92092117362628e+01°)
1.11728713807222e+01	(-3.11458420590959e+01dB,8.92037120747016e+01°)
1.12505848468881e+01	(-3.10856477689682e+01dB,8.91981741747970e+01°)
1.13288388529580e+01	(-3.10254536422599e+01dB,8.91925977708918e+01°)
1.14076371586843e+01	(-3.09652596812513e+01dB,8.91869825954874e+01°)
1.14869835499704e+01	(-3.09050658882545e+01dB,8.91813283792315e+01°)
1.15668818390529e+01	(-3.08448722656141e+01dB,8.91756348509050e+01°)
1.16473358646846e+01	(-3.07846788157070e+01dB,8.91699017374093e+01°)
1.17283494923188e+01	(-3.07244855409436e+01dB,8.91641287637534e+01°)
1.18099266142953e+01	(-3.06642924437677e+01dB,8.91583156530407e+01°)
1.18920711500272e+01	(-3.06040995266573e+01dB,8.91524621264564e+01°)
1.19747870461893e+01	(-3.05439067921248e+01dB,8.91465679032535e+01°)
1.20580782769076e+01	(-3.04837142427180e+01dB,8.91406327007403e+01°)
1.21419488439505e+01	(-3.04235218810197e+01dB,8.91346562342665e+01°)
1.22264027769207e+01	(-3.03633297096492e+01dB,8.91286382172102e+01°)
1.23114441334492e+01	(-3.03031377312622e+01dB,8.91225783609638e+01°)
1.23970769993899e+01	(-3.02429459485512e+01dB,8.91164763749210e+01°)
1.24833054890161e+01	(-3.01827543642466e+01dB,8.91103319664624e+01°)
1.25701337452183e+01	(-3.01225629811166e+01dB,8.91041448409423e+01°)
1.26575659397028e+01	(-3.00623718019682e+01dB,8.90979147016744e+01°)
1.27456062731927e+01	(-3.00021808296475e+01dB,8.90916412499179e+01°)
1.28342589756291e+01	(-2.99419900670401e+01dB,8.90853241848634e+01°)
1.29235283063750e+01	(-2.98817995170721e+01dB,8.90789632036189e+01°)
1.30134185544194e+01	(-2.98216091827104e+01dB,8.90725580011949e+01°)
1.31039340385837e+01	(-2.97614190669629e+01dB,8.90661082704909e+01°)
1.31950791077290e+01	(-2.97012291728800e+01dB,8.90596137022802e+01°)
1.32868581409652e+01	(-2.96410395035542e+01dB,8.90530739851957e+01°)
1.33792755478612e+01	(-2.95808500621213e+01dB,8.90464888057150e+01°)
1.34723357686569e+01	(-2.95206608517609e+01dB,8.90398578481460e+01°)
1.35660432744768e+01	(-2.94604718756967e+01dB,8.90331807946114e+01°)
1.36604025675440e+01	(-2.94002831371975e+01dB,8.90264573250346e+01°)
1.37554181813975e+01	(-2.93400946395778e+01dB,8.90196871171237e+01°)
1.38510946811093e+01	(-2.92799063861981e+01dB,8.90128698463570e+01°)
1.39474366635041e+01	(-2.92197183804658e+01dB,8.90060051859676e+01°)
1.40444487573800e+01	(-2.91595306258360e+01dB,8.89990928069278e+01°)
1.41421356237310e+01	(-2.90993431258116e+01dB,8.89921323779339e+01°)
1.42405019559708e+01	(-2.90391558839447e+01dB,8.89851235653904e+01°)
1.43395524801583e+01	(-2.89789689038368e+01dB,8.89780660333945e+01°)
1.44392919552250e+01	(-2.89187821891395e+01dB,8.89709594437204e+01°)
1.45397251732032e+01	(-2.88585957435555e+01dB,8.89638034558031e+01°)
1.46408569594563e+01	(-2.87984095708389e+01dB,8.89565977267226e+01°)
1.47426921729111e+01	(-2.87382236747965e+01dB,8.89493419111881e+01°)
1.48452357062906e+01	(-2.86780380592876e+01dB,8.89420356615211e+01°)
1.49484924863494e+01	(-2.86178527282259e+01dB,8.89346786276398e+01°)
1.50524674741107e+01	(-2.85576676855793e+01dB,8.89272704570424e+01°)
1.51571656651040e+01	(-2.84974829353710e+01dB,8.89198107947904e+01°)
1.52625920896057e+01	(-2.84372984816806e+01dB,8.89122992834924e+01°)
1.53687518128802e+01	(-2.83771143286442e+01dB,8.89047355632869e+01°)
1.54756499354240e+01	(-2.83169304804557e+01dB,8.88971192718258e+01°)
1.55832915932101e+01	(-2.82567469413675e+01dB,8.88894500442574e+01°)
1.56916819579351e+01	(-2.81965637156912e+01dB,8.88817275132092e+01°)
1.58008262372676e+01	(-2.81363808077987e+01dB,8.88739513087707e+01°)
1.59107296750985e+01	(-2.80761982221225e+01dB,8.88661210584763e+01°)
1.60213975517925e+01	(-2.80160159631570e+01dB,8.88582363872878e+01°)
1.61328351844426e+01	(-2.79558340354595e+01dB,8.88502969175768e+01°)
1.62450479271248e+01	(-2.78956524436504e+01dB,8.88423022691074e+01°)
1.63580411711557e+01	(-2.78354711924149e+01dB,8.88342520590179e+01°)
1.64718203453516e+01	(-2.77752902865031e+01dB,8.88261459018034e+01°)
1.65863909162889e+01	(-2.77151097307316e+01dB,8.88179834092977e+01°)
1.67017583885675e+01	(-2.76549295299840e+01dB,8.88097641906553e+01°)
1.68179283050744e+01	(-2.75947496892119e+01dB,8.88014878523328e+01°)
1.69349062472506e+01	(-2.75345702134361e+01dB,8.87931539980711e+01°)
1.70526978353592e+01	(-2.74743911077472e+01dB,8.87847622288767e+01°)
1.71713087287552e+01	(-2.74142123773067e+01dB,8.87763121430030e+01°)
1.72907446261574e+01	(-2.73540340273481e+01dB,8.87678033359321e+01°)
1.74110112659226e+01	(-2.72938560631779e+01dB,8.87592354003554e+01°)
1.75321144263208e+01	(-2.72336784901764e+01dB,8.87506079261550e+01°)
1.76540599258132e+01	(-2.71735013137990e+01dB,8.87419205003846e+01°)
1.77768536233315e+01	(-2.71133245395769e+01dB,8.87331727072506e+01°)
1.79005014185596e+01	(-2.70531481731186e+01dB,8.87243641280922e+01°)
1.80250092522167e+01	(-2.69929722201105e+01dB,8.87154943413625e+01°)
1.81503831063433e+01	(-2.69327966863185e+01dB,8.87065629226090e+01°)
1.82766290045881e+01	(-2.68726215775886e+01dB,8.86975694444535e+01°)
1.84037530124976e+01	(-2.68124468998483e+01dB,8.86885134765726e+01°)
1.85317612378075e+01	(-2.67522726591077e+01dB,8.86793945856779e+01°)
1.86606598307363e+01	(-2.66920988614606e+01dB,8.86702123354958e+01°)
1.87904549842804e+01	(-2.66319255130857e+01dB,8.86609662867472e+01°)
1.89211529345120e+01	(-2.65717526202478e+01dB,8.86516559971275e+01°)
1.90527599608789e+01	(-2.65115801892989e+01dB,8.86422810212861e+01°)
1.91852823865054e+01	(-2.64514082266794e+01dB,8.86328409108056e+01°)
1.93187265784970e+01	(-2.63912367389196e+01dB,8.86233352141815e+01°)
1.94530989482459e+01	(-2.63310657326406e+01dB,8.86137634768012e+01°)
1.95884059517387e+01	(-2.62708952145558e+01dB,8.86041252409229e+01°)
1.97246540898673e+01	(-2.62107251914719e+01dB,8.85944200456550e+01°)
1.98618499087409e+01	(-2.61505556702907e+01dB,8.85846474269342e+01°)
2.00000000000001e+01	(-2.60903866580099e+01dB,8.85748069175050e+01°)
2.01391110011345e+01	(-2.60302181617246e+01dB,8.85648980468975e+01°)
2.02791895958007e+01	(-2.59700501886290e+01dB,8.85549203414061e+01°)
2.04202425141440e+01	(-2.59098827460171e+01dB,8.85448733240679e+01°)
2.05622765331215e+01	(-2.58497158412847e+01dB,8.85347565146405e+01°)
2.07052984768277e+01	(-2.57895494819304e+01dB,8.85245694295804e+01°)
2.08493152168226e+01	(-2.57293836755574e+01dB,8.85143115820203e+01°)
2.09943336724615e+01	(-2.56692184298747e+01dB,8.85039824817475e+01°)
2.11403608112278e+01	(-2.56090537526984e+01dB,8.84935816351809e+01°)
2.12874036490674e+01	(-2.55488896519537e+01dB,8.84831085453488e+01°)
2.14354692507260e+01	(-2.54887261356761e+01dB,8.84725627118659e+01°)
2.15845647300887e+01	(-2.54285632120126e+01dB,8.84619436309107e+01°)
2.17346972505213e+01	(-2.53684008892241e+01dB,8.84512507952027e+01°)
2.18858740252150e+01	(-2.53082391756861e+01dB,8.84404836939786e+01°)
2.20381023175324e+01	(-2.52480780798910e+01dB,8.84296418129699e+01°)
2.21913894413571e+01	(-2.51879176104490e+01dB,8.84187246343789e+01°)
2.23457427614446e+01	(-2.51277577760905e+01dB,8.84077316368553e+01°)
2.25011696937764e+01	(-2.50675985856671e+01dB,8.83966622954728e+01°)
2.26576777059162e+01	(-2.50074400481539e+01dB,8.83855160817048e+01°)
2.28152743173687e+01	(-2.49472821726506e+01dB,8.83742924634007e+01°)
2.29739670999409e+01	(-2.48871249683837e+01dB,8.83629909047619e+01°)
2.31337636781060e+01	(-2.48269684447080e+01dB,8.83516108663174e+01°)
2.32946717293693e+01	(-2.47668126111084e+01dB,8.83401518048992e+01°)
2.34566989846378e+01	(-2.47066574772020e+01dB,8.83286131736181e+01°)
2.36198532285908e+01	(-2.46465030527393e+01dB,8.83169944218389e+01°)
2.37841423000546e+01	(-2.45863493476069e+01dB,8.83052949951552e+01°)
2.39495740923788e+01	(-2.45261963718286e+01dB,8.82935143353652e+01°)
2.41161565538154e+01	(-2.44660441355678e+01dB,8.82816518804456e+01°)
2.42838976879012e+01	(-2.44058926491292e+01dB,8.82697070645271e+01°)
2.44528055538416e+01	(-2.43457419229607e+01dB,8.82576793178685e+01°)
2.46228882668986e+01	(-2.42855919676559e+01dB,8.82455680668313e+01°)
2.47941539987800e+01	(-2.42254427939553e+01dB,8.82333727338539e+01°)
2.49666109780325e+01	(-2.41652944127490e+01dB,8.82210927374259e+01°)
2.51402674904368e+01	(-2.41051468350785e+01dB,8.82087274920616e+01°)
2.53151318794059e+01	(-2.40450000721389e+01dB,8.81962764082744e+01°)
2.54912125463855e+01	(-2.39848541352807e+01dB,8.81837388925500e+01°)
2.56685179512583e+01	(-2.39247090360125e+01dB,8.81711143473202e+01°)
2.58470566127501e+01	(-2.38645647860028e+01dB,8.81584021709361e+01°)
2.60268371088389e+01	(-2.38044213970823e+01dB,8.81456017576412e+01°)
2.62078680771675e+01	(-2.37442788812462e+01dB,8.81327124975448e+01°)
2.63901582154582e+01	(-2.36841372506565e+01dB,8.81197337765947e+01°)
2.65737162819305e+01	(-2.36239965176440e+01dB,8.81066649765497e+01°)
2.67585510957225e+01	(-2.35638566947112e+01dB,8.80935054749525e+01°)
2.69446715373141e+01	(-2.35037177945341e+01dB,8.80802546451022e+01°)
2.71320865489537e+01	(-2.34435798299651e+01dB,8.80669118560263e+01°)
2.73208051350882e+01	(-2.33834428140350e+01dB,8.80534764724529e+01°)
2.75108363627952e+01	(-2.33233067599557e+01dB,8.80399478547828e+01°)
2.77021893622188e+01	(-2.32631716811229e+01dB,8.80263253590612e+01°)
2.78948733270084e+01	(-2.32030375911180e+01dB,8.80126083369493e+01°)
2.80888975147603e+01	(-2.31429045037115e+01dB,8.79987961356961e+01°)
2.82842712474622e+01	(-2.30827724328650e+01dB,8.79848880981092e+01°)
2.84810039119418e+01	(-2.30226413927340e+01dB,8.79708835625265e+01°)
2.86791049603169e+01	(-2.29625113976706e+01dB,8.79567818627870e+01°)
2.88785839104503e+01	(-2.29023824622265e+01dB,8.79425823282017e+01°)
2.90794503464065e+01	(-2.28422546011551e+01dB,8.79282842835243e+01°)
2.92817139189128e+01	(-2.27821278294151e+01dB,8.79138870489217e+01°)
2.94853843458224e+01	(-2.27220021621725e+01dB,8.78993899399444e+01°)
2.96904714125813e+01	(-2.26618776148042e+01dB,8.78847922674971e+01°)
2.98969849726991e+01	(-2.26017542029004e+01dB,8.78700933378082e+01°)
3.01049349482217e+01	(-2.25416319422679e+01dB,8.78552924524000e+01°)
3.03143313302083e+01	(-2.24815108489327e+01dB,8.78403889080585e+01°)
3.05251841792116e+01	(-2.24213909391434e+01dB,8.78253819968032e+01°)
3.07375036257606e+01	(-2.23612722293743e+01dB,8.78102710058559e+01°)
3.09512998708482e+01	(-2.23011547363279e+01dB,8.77950552176107e+01°)
3.11665831864204e+01	(-2.22410384769388e+01dB,8.77797339096027e+01°)
3.13833639158704e+01	(-2.21809234683766e+01dB,8.77643063544772e+01°)
3.16016524745355e+01	(-2.21208097280490e+01dB,8.77487718199584e+01°)
3.18214593501971e+01	(-2.20606972736052e+01dB,8.77331295688179e+01°)
3.20427951035853e+01	(-2.20005861229394e+01dB,8.77173788588437e+01°)
3.22656703688855e+01	(-2.19404762941939e+01dB,8.77015189428079e+01°)
3.24900958542498e+01	(-2.18803678057625e+01dB,8.76855490684353e+01°)
3.27160823423117e+01	(-2.18202606762945e+01dB,8.76694684783714e+01°)
3.29436406907033e+01	(-2.17601549246974e+01dB,8.76532764101502e+01°)
3.31727818325781e+01	(-2.17000505701412e+01dB,8.76369720961616e+01°)
3.34035167771352e+01	(-2.16399476320614e+01dB,8.76205547636197e+01°)
3.36358566101490e+01	(-2.15798461301633e+01dB,8.76040236345295e+01°)
3.38698124945015e+01	(-2.15197460844249e+01dB,8.75873779256543e+01°)
3.41053956707187e+01	(-2.14596475151017e+01dB,8.75706168484831e+01°)
3.43426174575106e+01	(-2.13995504427294e+01dB,8.75537396091972e+01°)
3.45814892523151e+01	(-2.13394548881285e+01dB,8.75367454086370e+01°)
3.48220225318454e+01	(-2.12793608724082e+01dB,8.75196334422689e+01°)
3.50642288526419e+01	(-2.12192684169699e+01dB,8.75024029001515e+01°)
3.53081198516267e+01	(-2.11591775435116e+01dB,8.74850529669018e+01°)
3.55537072466633e+01	(-2.10990882740319e+01dB,8.74675828216618e+01°)
3.58010028371194e+01	(-2.10390006308340e+01dB,8.74499916380641e+01°)
3.60500185044337e+01	(-2.09789146365302e+01dB,8.74322785841981e+01°)
3.63007662126869e+01	(-2.09188303140457e+01dB,8.74144428225752e+01°)
3.65532580091765e+01	(-2.08587476866233e+01dB,8.73964835100951e+01°)
3.68075060249955e+01	(-2.07986667778275e+01dB,8.73783997980104e+01°)
3.70635224756154e+01	(-2.07385876115490e+01dB,8.73601908318925e+01°)
3.73213196614728e+01	(-2.06785102120093e+01dB,8.73418557515963e+01°)
3.75809099685610e+01	(-2.06184346037651e+01dB,8.73233936912254e+01°)
3.78423058690244e+01	(-2.05583608117128e+01dB,8.73048037790969e+01°)
3.81055199217580e+01	(-2.04982888610934e+01dB,8.72860851377059e+01°)
3.83705647730111e+01	(-2.04382187774971e+01dB,8.72672368836902e+01°)
3.86374531569944e+01	(-2.03781505868681e+01dB,8.72482581277946e+01°)
3.89061978964920e+01	(-2.03180843155094e+01dB,8.72291479748354e+01°)
3.91768119034776e+01	(-2.02580199900877e+01dB,8.72099055236639e+01°)
3.94493081797350e+01	(-2.01979576376387e+01dB,8.71905298671310e+01°)
3.97236998174820e+01	(-2.01378972855716e+01dB,8.71710200920509e+01°)
4.00000000000006e+01	(-2.00778389616747e+01dB,8.71513752791645e+01°)
4.02782220022694e+01	(-2.00177826941204e+01dB,8.71315945031031e+01°)
4.05583791916018e+01	(-1.99577285114703e+01dB,8.71116768323520e+01°)
4.08404850282883e+01	(-1.98976764426808e+01dB,8.70916213292136e+01°)
4.11245530662433e+01	(-1.98376265171084e+01dB,8.70714270497706e+01°)
4.14105969536557e+01	(-1.97775787645150e+01dB,8.70510930438492e+01°)
4.16986304336455e+01	(-1.97175332150738e+01dB,8.70306183549817e+01°)
4.19886673449233e+01	(-1.96574898993746e+01dB,8.70100020203695e+01°)
4.22807216224559e+01	(-1.95974488484295e+01dB,8.69892430708457e+01°)
4.25748072981351e+01	(-1.95374100936789e+01dB,8.69683405308377e+01°)
4.28709385014524e+01	(-1.94773736669971e+01dB,8.69472934183295e+01°)
4.31691294601778e+01	(-1.94173396006986e+01dB,8.69261007448241e+01°)
4.34693945010430e+01	(-1.93573079275433e+01dB,8.69047615153056e+01°)
4.37717480504303e+01	(-1.92972786807437e+01dB,8.68832747282013e+01°)
4.40762046350651e+01	(-1.92372518939700e+01dB,8.68616393753439e+01°)
4.43827788827145e+01	(-1.91772276013572e+01dB,8.68398544419329e+01°)
4.46914855228895e+01	(-1.91172058375108e+01dB,8.68179189064966e+01°)
4.50023393875531e+01	(-1.90571866375134e+01dB,8.67958317408538e+01°)
4.53153554118327e+01	(-1.89971700369316e+01dB,8.67735919100753e+01°)
4.56305486347377e+01	(-1.89371560718218e+01dB,8.67511983724453e+01°)
4.59479341998822e+01	(-1.88771447787376e+01dB,8.67286500794226e+01°)
4.62675273562123e+01	(-1.88171361947360e+01dB,8.67059459756023e+01°)
4.65893434587390e+01	(-1.87571303573849e+01dB,8.66830849986763e+01°)
4.69133979692759e+01	(-1.86971273047692e+01dB,8.66600660793953e+01°)
4.72397064571820e+01	(-1.86371270754986e+01dB,8.66368881415287e+01°)
4.75682846001096e+01	(-1.85771297087141e+01dB,8.66135501018264e+01°)
4.78991481847580e+01	(-1.85171352440958e+01dB,8.65900508699793e+01°)
4.82323131076312e+01	(-1.84571437218697e+01dB,8.65663893485799e+01°)
4.85677953758027e+01	(-1.83971551828154e+01dB,8.65425644330834e+01°)
4.89056111076836e+01	(-1.83371696682735e+01dB,8.65185750117680e+01°)
4.92457765337975e+01	(-1.82771872201532e+01dB,8.64944199656954e+01°)
4.95883079975603e+01	(-1.82172078809401e+01dB,8.64700981686718e+01°)
4.99332219560653e+01	(-1.81572316937039e+01dB,8.64456084872077e+01°)
5.02805349808740e+01	(-1.80972587021063e+01dB,8.64209497804788e+01°)
5.06302637588121e+01	(-1.80372889504091e+01dB,8.63961209002862e+01°)
5.09824250927714e+01	(-1.79773224834822e+01dB,8.63711206910166e+01°)
5.13370359025171e+01	(-1.79173593468118e+01dB,8.63459479896026e+01°)
5.16941132255006e+01	(-1.78573995865090e+01dB,8.63206016254832e+01°)
5.20536742176783e+01	(-1.77974432493179e+01dB,8.62950804205637e+01°)
5.24157361543355e+01	(-1.77374903826244e+01dB,8.62693831891758e+01°)
5.27803164309167e+01	(-1.76775410344644e+01dB,8.62435087380382e+01°)
5.31474325638614e+01	(-1.76175952535333e+01dB,8.62174558662166e+01°)
5.35171021914454e+01	(-1.75576530891943e+01dB,8.61912233650833e+01°)
5.38893430746286e+01	(-1.74977145914875e+01dB,8.61648100182783e+01°)
5.42641730979079e+01	(-1.74377798111394e+01dB,8.61382146016686e+01°)
5.46416102701768e+01	(-1.73778487995714e+01dB,8.61114358833088e+01°)
5.50216727255908e+01	(-1.73179216089099e+01dB,8.60844726234011e+01°)
5.54043787244380e+01	(-1.72579982919953e+01dB,8.60573235742555e+01°)
5.57897466540173e+01	(-1.71980789023918e+01dB,8.60299874802501e+01°)
5.61777950295209e+01	(-1.71381634943971e+01dB,8.60024630777913e+01°)
5.65685424949249e+01	(-1.70782521230520e+01dB,8.59747490952738e+01°)
5.69620078238839e+01	(-1.70183448441507e+01dB,8.59468442530413e+01°)
5.73582099206342e+01	(-1.69584417142509e+01dB,8.59187472633468e+01°)
5.77571678209009e+01	(-1.68985427906836e+01dB,8.58904568303128e+01°)
5.81589006928135e+01	(-1.68386481315641e+01dB,8.58619716498919e+01°)
5.85634278378261e+01	(-1.67787577958016e+01dB,8.58332904098275e+01°)
5.89707686916452e+01	(-1.67188718431110e+01dB,8.58044117896143e+01°)
5.93809428251631e+01	(-1.66589903340225e+01dB,8.57753344604590e+01°)
5.97939699453987e+01	(-1.65991133298933e+01dB,8.57460570852414e+01°)
6.02098698964439e+01	(-1.65392408929182e+01dB,8.57165783184748e+01°)
6.06286626604171e+01	(-1.64793730861409e+01dB,8.56868968062675e+01°)
6.10503683584236e+01	(-1.64195099734655e+01dB,8.56570111862838e+01°)
6.14750072515217e+01	(-1.63596516196677e+01dB,8.56269200877054e+01°)
6.19025997416968e+01	(-1.62997980904063e+01dB,8.55966221311923e+01°)
6.23331663728412e+01	(-1.62399494522354e+01dB,8.55661159288453e+01°)
6.27667278317413e+01	(-1.61801057726159e+01dB,8.55354000841667e+01°)
6.32033049490714e+01	(-1.61202671199278e+01dB,8.55044731920230e+01°)
6.36429187003948e+01	(-1.60604335634822e+01dB,8.54733338386064e+01°)
6.40855902071711e+01	(-1.60006051735336e+01dB,8.54419806013974e+01°)
6.45313407377714e+01	(-1.59407820212929e+01dB,8.54104120491270e+01°)
6.49801917085002e+01	(-1.58809641789392e+01dB,8.53786267417393e+01°)
6.54321646846238e+01	(-1.58211517196337e+01dB,8.53466232303548e+01°)
6.58872813814072e+01	(-1.57613447175315e+01dB,8.53144000572329e+01°)
6.63455636651567e+01	(-1.57015432477959e+01dB,8.52819557557354e+01°)
6.68070335542709e+01	(-1.56417473866107e+01dB,8.52492888502903e+01°)
6.72717132202986e+01	(-1.55819572111944e+01dB,8.52163978563553e+01°)
6.77396249890036e+01	(-1.55221727998134e+01dB,8.51832812803820e+01°)
6.82107913414380e+01	(-1.54623942317959e+01dB,8.51499376197803e+01°)
6.86852349150217e+01	(-1.54026215875461e+01dB,8.51163653628831e+01°)
6.91629785046307e+01	(-1.53428549485582e+01dB,8.50825629889111e+01°)
6.96440450636914e+01	(-1.52830943974304e+01dB,8.50485289679383e+01°)
7.01284577052843e+01	(-1.52233400178799e+01dB,8.50142617608574e+01°)
7.06162397032539e+01	(-1.51635918947573e+01dB,8.49797598193460e+01°)
7.11074144933271e+01	(-1.51038501140616e+01dB,8.49450215858327e+01°)
7.16020056742393e+01	(-1.50441147629549e+01dB,8.49100454934640e+01°)
