Freq.	V(vout)/V(vin)
1.00000000000000e+01	(-4.40331445229792e+01dB,8.96398265516848e+01°)
1.00695555005672e+01	(-4.39728930346127e+01dB,8.96373194144615e+01°)
1.01395947979003e+01	(-4.39126409110232e+01dB,8.96347947980875e+01°)
1.02101212570719e+01	(-4.38523881433372e+01dB,8.96322525801314e+01°)
1.02811382665607e+01	(-4.37921347225573e+01dB,8.96296926372916e+01°)
1.03526492384138e+01	(-4.37318806395601e+01dB,8.96271148453918e+01°)
1.04246576084112e+01	(-4.36716258850948e+01dB,8.96245190793717e+01°)
1.04971668362307e+01	(-4.36113704497811e+01dB,8.96219052132829e+01°)
1.05701804056138e+01	(-4.35511143241079e+01dB,8.96192731202810e+01°)
1.06437018245336e+01	(-4.34908574984309e+01dB,8.96166226726199e+01°)
1.07177346253629e+01	(-4.34305999629709e+01dB,8.96139537416442e+01°)
1.07922823650443e+01	(-4.33703417078121e+01dB,8.96112661977828e+01°)
1.08673486252606e+01	(-4.33100827229001e+01dB,8.96085599105424e+01°)
1.09429370126074e+01	(-4.32498229980399e+01dB,8.96058347484997e+01°)
1.10190511587661e+01	(-4.31895625228938e+01dB,8.96030905792962e+01°)
1.10956947206785e+01	(-4.31293012869799e+01dB,8.96003272696291e+01°)
1.11728713807222e+01	(-4.30690392796693e+01dB,8.95975446852457e+01°)
1.12505848468881e+01	(-4.30087764901848e+01dB,8.95947426909366e+01°)
1.13288388529580e+01	(-4.29485129075985e+01dB,8.95919211505265e+01°)
1.14076371586843e+01	(-4.28882485208295e+01dB,8.95890799268699e+01°)
1.14869835499704e+01	(-4.28279833186421e+01dB,8.95862188818407e+01°)
1.15668818390529e+01	(-4.27677172896433e+01dB,8.95833378763277e+01°)
1.16473358646846e+01	(-4.27074504222811e+01dB,8.95804367702254e+01°)
1.17283494923188e+01	(-4.26471827048417e+01dB,8.95775154224267e+01°)
1.18099266142953e+01	(-4.25869141254474e+01dB,8.95745736908169e+01°)
1.18920711500272e+01	(-4.25266446720547e+01dB,8.95716114322637e+01°)
1.19747870461893e+01	(-4.24663743324515e+01dB,8.95686285026111e+01°)
1.20580782769076e+01	(-4.24061030942547e+01dB,8.95656247566719e+01°)
1.21419488439505e+01	(-4.23458309449084e+01dB,8.95626000482196e+01°)
1.22264027769207e+01	(-4.22855578716808e+01dB,8.95595542299787e+01°)
1.23114441334492e+01	(-4.22252838616621e+01dB,8.95564871536201e+01°)
1.23970769993899e+01	(-4.21650089017618e+01dB,8.95533986697508e+01°)
1.24833054890161e+01	(-4.21047329787066e+01dB,8.95502886279063e+01°)
1.25701337452183e+01	(-4.20444560790372e+01dB,8.95471568765427e+01°)
1.26575659397028e+01	(-4.19841781891063e+01dB,8.95440032630289e+01°)
1.27456062731927e+01	(-4.19238992950754e+01dB,8.95408276336370e+01°)
1.28342589756291e+01	(-4.18636193829125e+01dB,8.95376298335354e+01°)
1.29235283063750e+01	(-4.18033384383896e+01dB,8.95344097067797e+01°)
1.30134185544194e+01	(-4.17430564470791e+01dB,8.95311670963040e+01°)
1.31039340385837e+01	(-4.16827733943520e+01dB,8.95279018439126e+01°)
1.31950791077290e+01	(-4.16224892653744e+01dB,8.95246137902721e+01°)
1.32868581409652e+01	(-4.15622040451049e+01dB,8.95213027749012e+01°)
1.33792755478612e+01	(-4.15019177182916e+01dB,8.95179686361626e+01°)
1.34723357686569e+01	(-4.14416302694692e+01dB,8.95146112112548e+01°)
1.35660432744768e+01	(-4.13813416829561e+01dB,8.95112303362017e+01°)
1.36604025675440e+01	(-4.13210519428511e+01dB,8.95078258458452e+01°)
1.37554181813975e+01	(-4.12607610330306e+01dB,8.95043975738348e+01°)
1.38510946811093e+01	(-4.12004689371452e+01dB,8.95009453526185e+01°)
1.39474366635041e+01	(-4.11401756386169e+01dB,8.94974690134344e+01°)
1.40444487573800e+01	(-4.10798811206355e+01dB,8.94939683863010e+01°)
1.41421356237310e+01	(-4.10195853661557e+01dB,8.94904433000069e+01°)
1.42405019559708e+01	(-4.09592883578934e+01dB,8.94868935821023e+01°)
1.43395524801583e+01	(-4.08989900783227e+01dB,8.94833190588888e+01°)
1.44392919552250e+01	(-4.08386905096724e+01dB,8.94797195554100e+01°)
1.45397251732032e+01	(-4.07783896339226e+01dB,8.94760948954415e+01°)
1.46408569594563e+01	(-4.07180874328009e+01dB,8.94724449014805e+01°)
1.47426921729111e+01	(-4.06577838877794e+01dB,8.94687693947377e+01°)
1.48452357062906e+01	(-4.05974789800705e+01dB,8.94650681951245e+01°)
1.49484924863494e+01	(-4.05371726906239e+01dB,8.94613411212450e+01°)
1.50524674741107e+01	(-4.04768650001222e+01dB,8.94575879903846e+01°)
1.51571656651040e+01	(-4.04165558889780e+01dB,8.94538086185001e+01°)
1.52625920896057e+01	(-4.03562453373292e+01dB,8.94500028202090e+01°)
1.53687518128802e+01	(-4.02959333250358e+01dB,8.94461704087792e+01°)
1.54756499354240e+01	(-4.02356198316757e+01dB,8.94423111961181e+01°)
1.55832915932101e+01	(-4.01753048365408e+01dB,8.94384249927620e+01°)
1.56916819579351e+01	(-4.01149883186332e+01dB,8.94345116078648e+01°)
1.58008262372676e+01	(-4.00546702566606e+01dB,8.94305708491880e+01°)
1.59107296750985e+01	(-3.99943506290326e+01dB,8.94266025230884e+01°)
1.60213975517925e+01	(-3.99340294138565e+01dB,8.94226064345077e+01°)
1.61328351844426e+01	(-3.98737065889330e+01dB,8.94185823869614e+01°)
1.62450479271248e+01	(-3.98133821317515e+01dB,8.94145301825266e+01°)
1.63580411711557e+01	(-3.97530560194863e+01dB,8.94104496218312e+01°)
1.64718203453516e+01	(-3.96927282289921e+01dB,8.94063405040417e+01°)
1.65863909162889e+01	(-3.96323987367989e+01dB,8.94022026268520e+01°)
1.67017583885675e+01	(-3.95720675191083e+01dB,8.93980357864713e+01°)
1.68179283050744e+01	(-3.95117345517882e+01dB,8.93938397776122e+01°)
1.69349062472506e+01	(-3.94513998103685e+01dB,8.93896143934786e+01°)
1.70526978353592e+01	(-3.93910632700360e+01dB,8.93853594257531e+01°)
1.71713087287552e+01	(-3.93307249056301e+01dB,8.93810746645854e+01°)
1.72907446261574e+01	(-3.92703846916373e+01dB,8.93767598985798e+01°)
1.74110112659226e+01	(-3.92100426021868e+01dB,8.93724149147816e+01°)
1.75321144263208e+01	(-3.91496986110449e+01dB,8.93680394986655e+01°)
1.76540599258132e+01	(-3.90893526916104e+01dB,8.93636334341222e+01°)
1.77768536233315e+01	(-3.90290048169092e+01dB,8.93591965034464e+01°)
1.79005014185596e+01	(-3.89686549595891e+01dB,8.93547284873218e+01°)
1.80250092522167e+01	(-3.89083030919143e+01dB,8.93502291648099e+01°)
1.81503831063433e+01	(-3.88479491857603e+01dB,8.93456983133354e+01°)
1.82766290045881e+01	(-3.87875932126082e+01dB,8.93411357086733e+01°)
1.84037530124976e+01	(-3.87272351435393e+01dB,8.93365411249351e+01°)
1.85317612378075e+01	(-3.86668749492293e+01dB,8.93319143345544e+01°)
1.86606598307363e+01	(-3.86065125999428e+01dB,8.93272551082742e+01°)
1.87904549842804e+01	(-3.85461480655273e+01dB,8.93225632151323e+01°)
1.89211529345120e+01	(-3.84857813154073e+01dB,8.93178384224468e+01°)
1.90527599608789e+01	(-3.84254123185788e+01dB,8.93130804958013e+01°)
1.91852823865054e+01	(-3.83650410436025e+01dB,8.93082891990323e+01°)
1.93187265784970e+01	(-3.83046674585984e+01dB,8.93034642942121e+01°)
1.94530989482459e+01	(-3.82442915312391e+01dB,8.92986055416364e+01°)
1.95884059517387e+01	(-3.81839132287436e+01dB,8.92937126998070e+01°)
1.97246540898673e+01	(-3.81235325178712e+01dB,8.92887855254184e+01°)
1.98618499087409e+01	(-3.80631493649146e+01dB,8.92838237733417e+01°)
2.00000000000001e+01	(-3.80027637356934e+01dB,8.92788271966092e+01°)
2.01391110011345e+01	(-3.79423755955478e+01dB,8.92737955463995e+01°)
2.02791895958007e+01	(-3.78819849093314e+01dB,8.92687285720204e+01°)
2.04202425141440e+01	(-3.78215916414045e+01dB,8.92636260208939e+01°)
2.05622765331215e+01	(-3.77611957556270e+01dB,8.92584876385401e+01°)
2.07052984768277e+01	(-3.77007972153518e+01dB,8.92533131685604e+01°)
2.08493152168226e+01	(-3.76403959834171e+01dB,8.92481023526210e+01°)
2.09943336724615e+01	(-3.75799920221393e+01dB,8.92428549304368e+01°)
2.11403608112278e+01	(-3.75195852933057e+01dB,8.92375706397541e+01°)
2.12874036490674e+01	(-3.74591757581671e+01dB,8.92322492163334e+01°)
2.14354692507260e+01	(-3.73987633774301e+01dB,8.92268903939325e+01°)
2.15845647300887e+01	(-3.73383481112493e+01dB,8.92214939042893e+01°)
2.17346972505213e+01	(-3.72779299192199e+01dB,8.92160594771032e+01°)
2.18858740252150e+01	(-3.72175087603692e+01dB,8.92105868400185e+01°)
2.20381023175324e+01	(-3.71570845931492e+01dB,8.92050757186056e+01°)
2.21913894413571e+01	(-3.70966573754280e+01dB,8.91995258363426e+01°)
2.23457427614446e+01	(-3.70362270644818e+01dB,8.91939369145978e+01°)
2.25011696937764e+01	(-3.69757936169863e+01dB,8.91883086726100e+01°)
2.26576777059162e+01	(-3.69153569890085e+01dB,8.91826408274703e+01°)
2.28152743173687e+01	(-3.68549171359979e+01dB,8.91769330941027e+01°)
2.29739670999409e+01	(-3.67944740127777e+01dB,8.91711851852449e+01°)
2.31337636781060e+01	(-3.67340275735362e+01dB,8.91653968114290e+01°)
2.32946717293693e+01	(-3.66735777718175e+01dB,8.91595676809611e+01°)
2.34566989846378e+01	(-3.66131245605126e+01dB,8.91536974999020e+01°)
2.36198532285908e+01	(-3.65526678918501e+01dB,8.91477859720464e+01°)
2.37841423000546e+01	(-3.64922077173866e+01dB,8.91418327989033e+01°)
2.39495740923788e+01	(-3.64317439879977e+01dB,8.91358376796739e+01°)
2.41161565538154e+01	(-3.63712766538677e+01dB,8.91298003112320e+01°)
2.42838976879012e+01	(-3.63108056644804e+01dB,8.91237203881020e+01°)
2.44528055538416e+01	(-3.62503309686087e+01dB,8.91175976024379e+01°)
2.46228882668986e+01	(-3.61898525143047e+01dB,8.91114316440010e+01°)
2.47941539987800e+01	(-3.61293702488898e+01dB,8.91052222001383e+01°)
2.49666109780325e+01	(-3.60688841189436e+01dB,8.90989689557606e+01°)
2.51402674904368e+01	(-3.60083940702940e+01dB,8.90926715933191e+01°)
2.53151318794059e+01	(-3.59479000480065e+01dB,8.90863297927831e+01°)
2.54912125463855e+01	(-3.58874019963730e+01dB,8.90799432316172e+01°)
2.56685179512583e+01	(-3.58268998589010e+01dB,8.90735115847574e+01°)
2.58470566127501e+01	(-3.57663935783026e+01dB,8.90670345245875e+01°)
2.60268371088389e+01	(-3.57058830964832e+01dB,8.90605117209156e+01°)
2.62078680771675e+01	(-3.56453683545297e+01dB,8.90539428409491e+01°)
2.63901582154582e+01	(-3.55848492926992e+01dB,8.90473275492709e+01°)
2.65737162819305e+01	(-3.55243258504072e+01dB,8.90406655078140e+01°)
2.67585510957225e+01	(-3.54637979662153e+01dB,8.90339563758368e+01°)
2.69446715373141e+01	(-3.54032655778196e+01dB,8.90271998098966e+01°)
2.71320865489537e+01	(-3.53427286220378e+01dB,8.90203954638252e+01°)
2.73208051350882e+01	(-3.52821870347972e+01dB,8.90135429887016e+01°)
2.75108363627952e+01	(-3.52216407511216e+01dB,8.90066420328259e+01°)
2.77021893622188e+01	(-3.51610897051189e+01dB,8.89996922416922e+01°)
2.78948733270084e+01	(-3.51005338299675e+01dB,8.89926932579621e+01°)
2.80888975147603e+01	(-3.50399730579037e+01dB,8.89856447214362e+01°)
2.82842712474622e+01	(-3.49794073202077e+01dB,8.89785462690269e+01°)
2.84810039119418e+01	(-3.49188365471902e+01dB,8.89713975347298e+01°)
2.86791049603169e+01	(-3.48582606681788e+01dB,8.89641981495949e+01°)
2.88785839104503e+01	(-3.47976796115036e+01dB,8.89569477416983e+01°)
2.90794503464065e+01	(-3.47370933044831e+01dB,8.89496459361114e+01°)
2.92817139189128e+01	(-3.46765016734101e+01dB,8.89422923548726e+01°)
2.94853843458224e+01	(-3.46159046435363e+01dB,8.89348866169563e+01°)
2.96904714125813e+01	(-3.45553021390584e+01dB,8.89274283382420e+01°)
2.98969849726991e+01	(-3.44946940831022e+01dB,8.89199171314839e+01°)
3.01049349482217e+01	(-3.44340803977076e+01dB,8.89123526062791e+01°)
3.03143313302083e+01	(-3.43734610038135e+01dB,8.89047343690358e+01°)
3.05251841792116e+01	(-3.43128358212412e+01dB,8.88970620229406e+01°)
3.07375036257606e+01	(-3.42522047686793e+01dB,8.88893351679267e+01°)
3.09512998708482e+01	(-3.41915677636668e+01dB,8.88815534006392e+01°)
3.11665831864204e+01	(-3.41309247225771e+01dB,8.88737163144029e+01°)
3.13833639158704e+01	(-3.40702755606010e+01dB,8.88658234991869e+01°)
3.16016524745355e+01	(-3.40096201917302e+01dB,8.88578745415710e+01°)
3.18214593501971e+01	(-3.39489585287395e+01dB,8.88498690247096e+01°)
3.20427951035853e+01	(-3.38882904831700e+01dB,8.88418065282968e+01°)
3.22656703688855e+01	(-3.38276159653109e+01dB,8.88336866285300e+01°)
3.24900958542498e+01	(-3.37669348841819e+01dB,8.88255088980732e+01°)
3.27160823423117e+01	(-3.37062471475148e+01dB,8.88172729060199e+01°)
3.29436406907033e+01	(-3.36455526617351e+01dB,8.88089782178555e+01°)
3.31727818325781e+01	(-3.35848513319432e+01dB,8.88006243954186e+01°)
3.34035167771352e+01	(-3.35241430618954e+01dB,8.87922109968629e+01°)
3.36358566101490e+01	(-3.34634277539846e+01dB,8.87837375766174e+01°)
3.38698124945015e+01	(-3.34027053092206e+01dB,8.87752036853463e+01°)
3.41053956707187e+01	(-3.33419756272104e+01dB,8.87666088699090e+01°)
3.43426174575106e+01	(-3.32812386061378e+01dB,8.87579526733184e+01°)
3.45814892523151e+01	(-3.32204941427431e+01dB,8.87492346346998e+01°)
3.48220225318454e+01	(-3.31597421323024e+01dB,8.87404542892477e+01°)
3.50642288526419e+01	(-3.30989824686060e+01dB,8.87316111681841e+01°)
3.53081198516267e+01	(-3.30382150439377e+01dB,8.87227047987132e+01°)
3.55537072466633e+01	(-3.29774397490527e+01dB,8.87137347039788e+01°)
3.58010028371194e+01	(-3.29166564731554e+01dB,8.87047004030180e+01°)
3.60500185044337e+01	(-3.28558651038774e+01dB,8.86956014107168e+01°)
3.63007662126869e+01	(-3.27950655272545e+01dB,8.86864372377626e+01°)
3.65532580091765e+01	(-3.27342576277038e+01dB,8.86772073905980e+01°)
3.68075060249955e+01	(-3.26734412880005e+01dB,8.86679113713729e+01°)
3.70635224756154e+01	(-3.26126163892538e+01dB,8.86585486778956e+01°)
3.73213196614728e+01	(-3.25517828108828e+01dB,8.86491188035843e+01°)
3.75809099685610e+01	(-3.24909404305925e+01dB,8.86396212374164e+01°)
3.78423058690244e+01	(-3.24300891243485e+01dB,8.86300554638783e+01°)
3.81055199217580e+01	(-3.23692287663523e+01dB,8.86204209629135e+01°)
3.83705647730111e+01	(-3.23083592290151e+01dB,8.86107172098703e+01°)
3.86374531569944e+01	(-3.22474803829324e+01dB,8.86009436754488e+01°)
3.89061978964920e+01	(-3.21865920968574e+01dB,8.85910998256466e+01°)
3.91768119034776e+01	(-3.21256942376746e+01dB,8.85811851217043e+01°)
3.94493081797350e+01	(-3.20647866703719e+01dB,8.85711990200490e+01°)
3.97236998174820e+01	(-3.20038692580140e+01dB,8.85611409722389e+01°)
4.00000000000006e+01	(-3.19429418617139e+01dB,8.85510104249041e+01°)
4.02782220022694e+01	(-3.18820043406044e+01dB,8.85408068196898e+01°)
4.05583791916018e+01	(-3.18210565518097e+01dB,8.85305295931957e+01°)
4.08404850282883e+01	(-3.17600983504160e+01dB,8.85201781769162e+01°)
4.11245530662433e+01	(-3.16991295894417e+01dB,8.85097519971785e+01°)
4.14105969536557e+01	(-3.16381501198073e+01dB,8.84992504750807e+01°)
4.16986304336455e+01	(-3.15771597903050e+01dB,8.84886730264285e+01°)
4.19886673449233e+01	(-3.15161584475673e+01dB,8.84780190616700e+01°)
4.22807216224559e+01	(-3.14551459360356e+01dB,8.84672879858311e+01°)
4.25748072981351e+01	(-3.13941220979286e+01dB,8.84564791984481e+01°)
4.28709385014524e+01	(-3.13330867732092e+01dB,8.84455920935005e+01°)
4.31691294601778e+01	(-3.12720397995516e+01dB,8.84346260593423e+01°)
4.34693945010430e+01	(-3.12109810123083e+01dB,8.84235804786311e+01°)
4.37717480504303e+01	(-3.11499102444755e+01dB,8.84124547282580e+01°)
4.40762046350651e+01	(-3.10888273266590e+01dB,8.84012481792745e+01°)
4.43827788827145e+01	(-3.10277320870386e+01dB,8.83899601968193e+01°)
4.46914855228895e+01	(-3.09666243513334e+01dB,8.83785901400429e+01°)
4.50023393875531e+01	(-3.09055039427646e+01dB,8.83671373620322e+01°)
4.53153554118327e+01	(-3.08443706820196e+01dB,8.83556012097324e+01°)
4.56305486347377e+01	(-3.07832243872144e+01dB,8.83439810238684e+01°)
4.59479341998822e+01	(-3.07220648738559e+01dB,8.83322761388648e+01°)
4.62675273562123e+01	(-3.06608919548031e+01dB,8.83204858827641e+01°)
4.65893434587390e+01	(-3.05997054402287e+01dB,8.83086095771439e+01°)
4.69133979692759e+01	(-3.05385051375790e+01dB,8.82966465370326e+01°)
4.72397064571820e+01	(-3.04772908515339e+01dB,8.82845960708230e+01°)
4.75682846001096e+01	(-3.04160623839659e+01dB,8.82724574801853e+01°)
4.78991481847580e+01	(-3.03548195338986e+01dB,8.82602300599783e+01°)
4.82323131076312e+01	(-3.02935620974648e+01dB,8.82479130981583e+01°)
4.85677953758027e+01	(-3.02322898678635e+01dB,8.82355058756875e+01°)
4.89056111076836e+01	(-3.01710026353165e+01dB,8.82230076664394e+01°)
4.92457765337975e+01	(-3.01097001870240e+01dB,8.82104177371045e+01°)
4.95883079975603e+01	(-3.00483823071204e+01dB,8.81977353470920e+01°)
4.99332219560653e+01	(-2.99870487766281e+01dB,8.81849597484316e+01°)
5.02805349808740e+01	(-2.99256993734117e+01dB,8.81720901856720e+01°)
5.06302637588121e+01	(-2.98643338721307e+01dB,8.81591258957792e+01°)
5.09824250927714e+01	(-2.98029520441920e+01dB,8.81460661080312e+01°)
5.13370359025171e+01	(-2.97415536577015e+01dB,8.81329100439123e+01°)
5.16941132255006e+01	(-2.96801384774146e+01dB,8.81196569170040e+01°)
5.20536742176783e+01	(-2.96187062646866e+01dB,8.81063059328756e+01°)
5.24157361543355e+01	(-2.95572567774212e+01dB,8.80928562889710e+01°)
5.27803164309167e+01	(-2.94957897700198e+01dB,8.80793071744946e+01°)
5.31474325638614e+01	(-2.94343049933284e+01dB,8.80656577702949e+01°)
5.35171021914454e+01	(-2.93728021945847e+01dB,8.80519072487452e+01°)
5.38893430746286e+01	(-2.93112811173638e+01dB,8.80380547736230e+01°)
5.42641730979079e+01	(-2.92497415015233e+01dB,8.80240994999864e+01°)
5.46416102701768e+01	(-2.91881830831474e+01dB,8.80100405740487e+01°)
5.50216727255908e+01	(-2.91266055944903e+01dB,8.79958771330505e+01°)
5.54043787244380e+01	(-2.90650087639186e+01dB,8.79816083051287e+01°)
5.57897466540173e+01	(-2.90033923158525e+01dB,8.79672332091841e+01°)
5.61777950295209e+01	(-2.89417559707062e+01dB,8.79527509547456e+01°)
5.65685424949249e+01	(-2.88800994448278e+01dB,8.79381606418322e+01°)
5.69620078238839e+01	(-2.88184224504378e+01dB,8.79234613608123e+01°)
5.73582099206342e+01	(-2.87567246955662e+01dB,8.79086521922600e+01°)
5.77571678209009e+01	(-2.86950058839897e+01dB,8.78937322068089e+01°)
5.81589006928135e+01	(-2.86332657151665e+01dB,8.78787004650031e+01°)
5.85634278378261e+01	(-2.85715038841715e+01dB,8.78635560171448e+01°)
5.89707686916452e+01	(-2.85097200816292e+01dB,8.78482979031396e+01°)
5.93809428251631e+01	(-2.84479139936462e+01dB,8.78329251523380e+01°)
5.97939699453987e+01	(-2.83860853017422e+01dB,8.78174367833747e+01°)
6.02098698964439e+01	(-2.83242336827804e+01dB,8.78018318040035e+01°)
6.06286626604171e+01	(-2.82623588088963e+01dB,8.77861092109301e+01°)
6.10503683584236e+01	(-2.82004603474254e+01dB,8.77702679896407e+01°)
6.14750072515217e+01	(-2.81385379608299e+01dB,8.77543071142277e+01°)
6.19025997416968e+01	(-2.80765913066237e+01dB,8.77382255472118e+01°)
6.23331663728412e+01	(-2.80146200372971e+01dB,8.77220222393598e+01°)
6.27667278317413e+01	(-2.79526238002393e+01dB,8.77056961295002e+01°)
6.32033049490714e+01	(-2.78906022376600e+01dB,8.76892461443333e+01°)
6.36429187003948e+01	(-2.78285549865099e+01dB,8.76726711982388e+01°)
6.40855902071711e+01	(-2.77664816783994e+01dB,8.76559701930789e+01°)
6.45313407377714e+01	(-2.77043819395162e+01dB,8.76391420179970e+01°)
6.49801917085002e+01	(-2.76422553905420e+01dB,8.76221855492132e+01°)
6.54321646846238e+01	(-2.75801016465665e+01dB,8.76050996498150e+01°)
6.58872813814072e+01	(-2.75179203170017e+01dB,8.75878831695429e+01°)
6.63455636651567e+01	(-2.74557110054931e+01dB,8.75705349445733e+01°)
6.68070335542709e+01	(-2.73934733098303e+01dB,8.75530537972954e+01°)
6.72717132202986e+01	(-2.73312068218564e+01dB,8.75354385360839e+01°)
6.77396249890036e+01	(-2.72689111273748e+01dB,8.75176879550672e+01°)
6.82107913414380e+01	(-2.72065858060551e+01dB,8.74998008338899e+01°)
6.86852349150217e+01	(-2.71442304313377e+01dB,8.74817759374716e+01°)
6.91629785046307e+01	(-2.70818445703358e+01dB,8.74636120157591e+01°)
6.96440450636914e+01	(-2.70194277837368e+01dB,8.74453078034743e+01°)
7.01284577052843e+01	(-2.69569796257012e+01dB,8.74268620198565e+01°)
7.06162397032539e+01	(-2.68944996437600e+01dB,8.74082733683990e+01°)
7.11074144933271e+01	(-2.68319873787108e+01dB,8.73895405365799e+01°)
7.16020056742393e+01	(-2.67694423645112e+01dB,8.73706621955877e+01°)
