Freq.	V(vout)/V(vin)
1.00000000000000e+01	(-3.00612867470265e+01dB,8.82005918258384e+01°)
1.00695555005672e+01	(-3.00011405232099e+01dB,8.81880842662642e+01°)
1.01395947979003e+01	(-2.99409951329856e+01dB,8.81754898842881e+01°)
1.02101212570719e+01	(-2.98808505879665e+01dB,8.81628080796752e+01°)
1.02811382665607e+01	(-2.98207068999270e+01dB,8.81500382480927e+01°)
1.03526492384138e+01	(-2.97605640808051e+01dB,8.81371797810825e+01°)
1.04246576084112e+01	(-2.97004221427048e+01dB,8.81242320660345e+01°)
1.04971668362307e+01	(-2.96402810978985e+01dB,8.81111944861592e+01°)
1.05701804056138e+01	(-2.95801409588288e+01dB,8.80980664204604e+01°)
1.06437018245336e+01	(-2.95200017381116e+01dB,8.80848472437077e+01°)
1.07177346253629e+01	(-2.94598634485380e+01dB,8.80715363264090e+01°)
1.07922823650443e+01	(-2.93997261030768e+01dB,8.80581330347823e+01°)
1.08673486252606e+01	(-2.93395897148770e+01dB,8.80446367307280e+01°)
1.09429370126074e+01	(-2.92794542972704e+01dB,8.80310467718006e+01°)
1.10190511587661e+01	(-2.92193198637740e+01dB,8.80173625111807e+01°)
1.10956947206785e+01	(-2.91591864280926e+01dB,8.80035832976462e+01°)
1.11728713807222e+01	(-2.90990540041213e+01dB,8.79897084755438e+01°)
1.12505848468881e+01	(-2.90389226059483e+01dB,8.79757373847604e+01°)
1.13288388529580e+01	(-2.89787922478575e+01dB,8.79616693606940e+01°)
1.14076371586843e+01	(-2.89186629443312e+01dB,8.79475037342246e+01°)
1.14869835499704e+01	(-2.88585347100527e+01dB,8.79332398316854e+01°)
1.15668818390529e+01	(-2.87984075599095e+01dB,8.79188769748325e+01°)
1.16473358646846e+01	(-2.87382815089954e+01dB,8.79044144808165e+01°)
1.17283494923188e+01	(-2.86781565726143e+01dB,8.78898516621518e+01°)
1.18099266142953e+01	(-2.86180327662821e+01dB,8.78751878266872e+01°)
1.18920711500272e+01	(-2.85579101057304e+01dB,8.78604222775760e+01°)
1.19747870461893e+01	(-2.84977886069091e+01dB,8.78455543132455e+01°)
1.20580782769076e+01	(-2.84376682859896e+01dB,8.78305832273668e+01°)
1.21419488439505e+01	(-2.83775491593675e+01dB,8.78155083088243e+01°)
1.22264027769207e+01	(-2.83174312436662e+01dB,8.78003288416850e+01°)
1.23114441334492e+01	(-2.82573145557398e+01dB,8.77850441051678e+01°)
1.23970769993899e+01	(-2.81971991126761e+01dB,8.77696533736126e+01°)
1.24833054890161e+01	(-2.81370849318001e+01dB,8.77541559164486e+01°)
1.25701337452183e+01	(-2.80769720306773e+01dB,8.77385509981638e+01°)
1.26575659397028e+01	(-2.80168604271165e+01dB,8.77228378782730e+01°)
1.27456062731927e+01	(-2.79567501391740e+01dB,8.77070158112865e+01°)
1.28342589756291e+01	(-2.78966411851563e+01dB,8.76910840466782e+01°)
1.29235283063750e+01	(-2.78365335836239e+01dB,8.76750418288536e+01°)
1.30134185544194e+01	(-2.77764273533945e+01dB,8.76588883971178e+01°)
1.31039340385837e+01	(-2.77163225135470e+01dB,8.76426229856435e+01°)
1.31950791077290e+01	(-2.76562190834246e+01dB,8.76262448234381e+01°)
1.32868581409652e+01	(-2.75961170826391e+01dB,8.76097531343116e+01°)
1.33792755478612e+01	(-2.75360165310736e+01dB,8.75931471368438e+01°)
1.34723357686569e+01	(-2.74759174488872e+01dB,8.75764260443513e+01°)
1.35660432744768e+01	(-2.74158198565183e+01dB,8.75595890648545e+01°)
1.36604025675440e+01	(-2.73557237746886e+01dB,8.75426354010446e+01°)
1.37554181813975e+01	(-2.72956292244069e+01dB,8.75255642502500e+01°)
1.38510946811093e+01	(-2.72355362269730e+01dB,8.75083748044032e+01°)
1.39474366635041e+01	(-2.71754448039821e+01dB,8.74910662500069e+01°)
1.40444487573800e+01	(-2.71153549773282e+01dB,8.74736377681001e+01°)
1.41421356237310e+01	(-2.70552667692088e+01dB,8.74560885342244e+01°)
1.42405019559708e+01	(-2.69951802021288e+01dB,8.74384177183901e+01°)
1.43395524801583e+01	(-2.69350952989048e+01dB,8.74206244850414e+01°)
1.44392919552250e+01	(-2.68750120826691e+01dB,8.74027079930223e+01°)
1.45397251732032e+01	(-2.68149305768746e+01dB,8.73846673955422e+01°)
1.46408569594563e+01	(-2.67548508052986e+01dB,8.73665018401411e+01°)
1.47426921729111e+01	(-2.66947727920479e+01dB,8.73482104686546e+01°)
1.48452357062906e+01	(-2.66346965615625e+01dB,8.73297924171791e+01°)
1.49484924863494e+01	(-2.65746221386209e+01dB,8.73112468160368e+01°)
1.50524674741107e+01	(-2.65145495483445e+01dB,8.72925727897400e+01°)
1.51571656651040e+01	(-2.64544788162021e+01dB,8.72737694569561e+01°)
1.52625920896057e+01	(-2.63944099680149e+01dB,8.72548359304717e+01°)
1.53687518128802e+01	(-2.63343430299614e+01dB,8.72357713171572e+01°)
1.54756499354240e+01	(-2.62742780285820e+01dB,8.72165747179308e+01°)
1.55832915932101e+01	(-2.62142149907841e+01dB,8.71972452277226e+01°)
1.56916819579351e+01	(-2.61541539438472e+01dB,8.71777819354382e+01°)
1.58008262372676e+01	(-2.60940949154279e+01dB,8.71581839239228e+01°)
1.59107296750985e+01	(-2.60340379335652e+01dB,8.71384502699248e+01°)
1.60213975517925e+01	(-2.59739830266855e+01dB,8.71185800440588e+01°)
1.61328351844426e+01	(-2.59139302236082e+01dB,8.70985723107695e+01°)
1.62450479271248e+01	(-2.58538795535507e+01dB,8.70784261282946e+01°)
1.63580411711557e+01	(-2.57938310461341e+01dB,8.70581405486280e+01°)
1.64718203453516e+01	(-2.57337847313888e+01dB,8.70377146174826e+01°)
1.65863909162889e+01	(-2.56737406397598e+01dB,8.70171473742535e+01°)
1.67017583885675e+01	(-2.56136988021125e+01dB,8.69964378519800e+01°)
1.68179283050744e+01	(-2.55536592497387e+01dB,8.69755850773091e+01°)
1.69349062472506e+01	(-2.54936220143619e+01dB,8.69545880704571e+01°)
1.70526978353592e+01	(-2.54335871281436e+01dB,8.69334458451724e+01°)
1.71713087287552e+01	(-2.53735546236891e+01dB,8.69121574086978e+01°)
1.72907446261574e+01	(-2.53135245340537e+01dB,8.68907217617322e+01°)
1.74110112659226e+01	(-2.52534968927486e+01dB,8.68691378983931e+01°)
1.75321144263208e+01	(-2.51934717337473e+01dB,8.68474048061781e+01°)
1.76540599258132e+01	(-2.51334490914920e+01dB,8.68255214659268e+01°)
1.77768536233315e+01	(-2.50734290008995e+01dB,8.68034868517825e+01°)
1.79005014185596e+01	(-2.50134114973683e+01dB,8.67812999311540e+01°)
1.80250092522167e+01	(-2.49533966167847e+01dB,8.67589596646765e+01°)
1.81503831063433e+01	(-2.48933843955295e+01dB,8.67364650061736e+01°)
1.82766290045881e+01	(-2.48333748704851e+01dB,8.67138149026182e+01°)
1.84037530124976e+01	(-2.47733680790417e+01dB,8.66910082940940e+01°)
1.85317612378075e+01	(-2.47133640591047e+01dB,8.66680441137561e+01°)
1.86606598307363e+01	(-2.46533628491015e+01dB,8.66449212877927e+01°)
1.87904549842804e+01	(-2.45933644879886e+01dB,8.66216387353856e+01°)
1.89211529345120e+01	(-2.45333690152589e+01dB,8.65981953686709e+01°)
1.90527599608789e+01	(-2.44733764709487e+01dB,8.65745900927005e+01°)
1.91852823865054e+01	(-2.44133868956454e+01dB,8.65508218054020e+01°)
1.93187265784970e+01	(-2.43534003304946e+01dB,8.65268893975400e+01°)
1.94530989482459e+01	(-2.42934168172082e+01dB,8.65027917526761e+01°)
1.95884059517387e+01	(-2.42334363980715e+01dB,8.64785277471300e+01°)
1.97246540898673e+01	(-2.41734591159513e+01dB,8.64540962499397e+01°)
1.98618499087409e+01	(-2.41134850143038e+01dB,8.64294961228217e+01°)
2.00000000000001e+01	(-2.40535141371822e+01dB,8.64047262201318e+01°)
2.01391110011345e+01	(-2.39935465292453e+01dB,8.63797853888251e+01°)
2.02791895958007e+01	(-2.39335822357653e+01dB,8.63546724684164e+01°)
2.04202425141440e+01	(-2.38736213026361e+01dB,8.63293862909406e+01°)
2.05622765331215e+01	(-2.38136637763820e+01dB,8.63039256809126e+01°)
2.07052984768277e+01	(-2.37537097041660e+01dB,8.62782894552876e+01°)
2.08493152168226e+01	(-2.36937591337983e+01dB,8.62524764234217e+01°)
2.09943336724615e+01	(-2.36338121137451e+01dB,8.62264853870312e+01°)
2.11403608112278e+01	(-2.35738686931379e+01dB,8.62003151401535e+01°)
2.12874036490674e+01	(-2.35139289217814e+01dB,8.61739644691071e+01°)
2.14354692507260e+01	(-2.34539928501639e+01dB,8.61474321524513e+01°)
2.15845647300887e+01	(-2.33940605294654e+01dB,8.61207169609468e+01°)
2.17346972505213e+01	(-2.33341320115675e+01dB,8.60938176575159e+01°)
2.18858740252150e+01	(-2.32742073490624e+01dB,8.60667329972021e+01°)
2.20381023175324e+01	(-2.32142865952632e+01dB,8.60394617271310e+01°)
2.21913894413571e+01	(-2.31543698042126e+01dB,8.60120025864700e+01°)
2.23457427614446e+01	(-2.30944570306935e+01dB,8.59843543063890e+01°)
2.25011696937764e+01	(-2.30345483302383e+01dB,8.59565156100202e+01°)
2.26576777059162e+01	(-2.29746437591396e+01dB,8.59284852124189e+01°)
2.28152743173687e+01	(-2.29147433744598e+01dB,8.59002618205236e+01°)
2.29739670999409e+01	(-2.28548472340417e+01dB,8.58718441331166e+01°)
2.31337636781060e+01	(-2.27949553965190e+01dB,8.58432308407846e+01°)
2.32946717293693e+01	(-2.27350679213266e+01dB,8.58144206258792e+01°)
2.34566989846378e+01	(-2.26751848687115e+01dB,8.57854121624776e+01°)
2.36198532285908e+01	(-2.26153062997439e+01dB,8.57562041163435e+01°)
2.37841423000546e+01	(-2.25554322763274e+01dB,8.57267951448877e+01°)
2.39495740923788e+01	(-2.24955628612112e+01dB,8.56971838971296e+01°)
2.41161565538154e+01	(-2.24356981180003e+01dB,8.56673690136578e+01°)
2.42838976879012e+01	(-2.23758381111678e+01dB,8.56373491265916e+01°)
2.44528055538416e+01	(-2.23159829060657e+01dB,8.56071228595424e+01°)
2.46228882668986e+01	(-2.22561325689374e+01dB,8.55766888275751e+01°)
2.47941539987800e+01	(-2.21962871669287e+01dB,8.55460456371696e+01°)
2.49666109780325e+01	(-2.21364467681004e+01dB,8.55151918861833e+01°)
2.51402674904368e+01	(-2.20766114414402e+01dB,8.54841261638120e+01°)
2.53151318794059e+01	(-2.20167812568750e+01dB,8.54528470505533e+01°)
2.54912125463855e+01	(-2.19569562852836e+01dB,8.54213531181679e+01°)
2.56685179512583e+01	(-2.18971365985088e+01dB,8.53896429296428e+01°)
2.58470566127501e+01	(-2.18373222693707e+01dB,8.53577150391539e+01°)
2.60268371088389e+01	(-2.17775133716792e+01dB,8.53255679920290e+01°)
2.62078680771675e+01	(-2.17177099802476e+01dB,8.52932003247108e+01°)
2.63901582154582e+01	(-2.16579121709051e+01dB,8.52606105647209e+01°)
2.65737162819305e+01	(-2.15981200205110e+01dB,8.52277972306230e+01°)
2.67585510957225e+01	(-2.15383336069677e+01dB,8.51947588319872e+01°)
2.69446715373141e+01	(-2.14785530092347e+01dB,8.51614938693540e+01°)
2.71320865489537e+01	(-2.14187783073426e+01dB,8.51280008341992e+01°)
2.73208051350882e+01	(-2.13590095824068e+01dB,8.50942782088985e+01°)
2.75108363627952e+01	(-2.12992469166423e+01dB,8.50603244666928e+01°)
2.77021893622188e+01	(-2.12394903933777e+01dB,8.50261380716536e+01°)
2.78948733270084e+01	(-2.11797400970699e+01dB,8.49917174786490e+01°)
2.80888975147603e+01	(-2.11199961133192e+01dB,8.49570611333098e+01°)
2.82842712474622e+01	(-2.10602585288837e+01dB,8.49221674719960e+01°)
2.84810039119418e+01	(-2.10005274316949e+01dB,8.48870349217640e+01°)
2.86791049603169e+01	(-2.09408029108730e+01dB,8.48516619003338e+01°)
2.88785839104503e+01	(-2.08810850567422e+01dB,8.48160468160565e+01°)
2.90794503464065e+01	(-2.08213739608466e+01dB,8.47801880678833e+01°)
2.92817139189128e+01	(-2.07616697159658e+01dB,8.47440840453331e+01°)
2.94853843458224e+01	(-2.07019724161316e+01dB,8.47077331284624e+01°)
2.96904714125813e+01	(-2.06422821566435e+01dB,8.46711336878346e+01°)
2.98969849726991e+01	(-2.05825990340858e+01dB,8.46342840844899e+01°)
3.01049349482217e+01	(-2.05229231463439e+01dB,8.45971826699163e+01°)
3.03143313302083e+01	(-2.04632545926214e+01dB,8.45598277860202e+01°)
3.05251841792116e+01	(-2.04035934734570e+01dB,8.45222177650984e+01°)
3.07375036257606e+01	(-2.03439398907417e+01dB,8.44843509298103e+01°)
3.09512998708482e+01	(-2.02842939477368e+01dB,8.44462255931506e+01°)
3.11665831864204e+01	(-2.02246557490907e+01dB,8.44078400584227e+01°)
3.13833639158704e+01	(-2.01650254008577e+01dB,8.43691926192126e+01°)
3.16016524745355e+01	(-2.01054030105154e+01dB,8.43302815593637e+01°)
3.18214593501971e+01	(-2.00457886869834e+01dB,8.42911051529523e+01°)
3.20427951035853e+01	(-1.99861825406416e+01dB,8.42516616642630e+01°)
3.22656703688855e+01	(-1.99265846833492e+01dB,8.42119493477661e+01°)
3.24900958542498e+01	(-1.98669952284634e+01dB,8.41719664480943e+01°)
3.27160823423117e+01	(-1.98074142908587e+01dB,8.41317112000214e+01°)
3.29436406907033e+01	(-1.97478419869461e+01dB,8.40911818284410e+01°)
3.31727818325781e+01	(-1.96882784346930e+01dB,8.40503765483460e+01°)
3.34035167771352e+01	(-1.96287237536430e+01dB,8.40092935648096e+01°)
3.36358566101490e+01	(-1.95691780649357e+01dB,8.39679310729659e+01°)
3.38698124945015e+01	(-1.95096414913272e+01dB,8.39262872579929e+01°)
3.41053956707187e+01	(-1.94501141572106e+01dB,8.38843602950949e+01°)
3.43426174575106e+01	(-1.93905961886367e+01dB,8.38421483494868e+01°)
3.45814892523151e+01	(-1.93310877133351e+01dB,8.37996495763791e+01°)
3.48220225318454e+01	(-1.92715888607353e+01dB,8.37568621209633e+01°)
3.50642288526419e+01	(-1.92120997619882e+01dB,8.37137841183992e+01°)
3.53081198516267e+01	(-1.91526205499876e+01dB,8.36704136938027e+01°)
3.55537072466633e+01	(-1.90931513593927e+01dB,8.36267489622342e+01°)
3.58010028371194e+01	(-1.90336923266495e+01dB,8.35827880286892e+01°)
3.60500185044337e+01	(-1.89742435900139e+01dB,8.35385289880889e+01°)
3.63007662126869e+01	(-1.89148052895738e+01dB,8.34939699252725e+01°)
3.65532580091765e+01	(-1.88553775672727e+01dB,8.34491089149904e+01°)
3.68075060249955e+01	(-1.87959605669320e+01dB,8.34039440218987e+01°)
3.70635224756154e+01	(-1.87365544342751e+01dB,8.33584733005552e+01°)
3.73213196614728e+01	(-1.86771593169507e+01dB,8.33126947954156e+01°)
3.75809099685610e+01	(-1.86177753645570e+01dB,8.32666065408326e+01°)
3.78423058690244e+01	(-1.85584027286655e+01dB,8.32202065610545e+01°)
3.81055199217580e+01	(-1.84990415628457e+01dB,8.31734928702269e+01°)
3.83705647730111e+01	(-1.84396920226896e+01dB,8.31264634723941e+01°)
3.86374531569944e+01	(-1.83803542658369e+01dB,8.30791163615034e+01°)
3.89061978964920e+01	(-1.83210284519998e+01dB,8.30314495214094e+01°)
3.91768119034776e+01	(-1.82617147429889e+01dB,8.29834609258812e+01°)
3.94493081797350e+01	(-1.82024133027384e+01dB,8.29351485386101e+01°)
3.97236998174820e+01	(-1.81431242973328e+01dB,8.28865103132190e+01°)
4.00000000000006e+01	(-1.80838478950324e+01dB,8.28375441932741e+01°)
4.02782220022694e+01	(-1.80245842663003e+01dB,8.27882481122968e+01°)
4.05583791916018e+01	(-1.79653335838290e+01dB,8.27386199937789e+01°)
4.08404850282883e+01	(-1.79060960225675e+01dB,8.26886577511982e+01°)
4.11245530662433e+01	(-1.78468717597486e+01dB,8.26383592880367e+01°)
4.14105969536557e+01	(-1.77876609749164e+01dB,8.25877224977998e+01°)
4.16986304336455e+01	(-1.77284638499545e+01dB,8.25367452640382e+01°)
4.19886673449233e+01	(-1.76692805691138e+01dB,8.24854254603707e+01°)
4.22807216224559e+01	(-1.76101113190408e+01dB,8.24337609505097e+01°)
4.25748072981351e+01	(-1.75509562888068e+01dB,8.23817495882882e+01°)
4.28709385014524e+01	(-1.74918156699364e+01dB,8.23293892176888e+01°)
4.31691294601778e+01	(-1.74326896564368e+01dB,8.22766776728752e+01°)
4.34693945010430e+01	(-1.73735784448275e+01dB,8.22236127782247e+01°)
4.37717480504303e+01	(-1.73144822341699e+01dB,8.21701923483644e+01°)
4.40762046350651e+01	(-1.72554012260975e+01dB,8.21164141882077e+01°)
4.43827788827145e+01	(-1.71963356248462e+01dB,8.20622760929950e+01°)
4.46914855228895e+01	(-1.71372856372847e+01dB,8.20077758483348e+01°)
4.50023393875531e+01	(-1.70782514729457e+01dB,8.19529112302484e+01°)
4.53153554118327e+01	(-1.70192333440569e+01dB,8.18976800052163e+01°)
4.56305486347377e+01	(-1.69602314655724e+01dB,8.18420799302276e+01°)
4.59479341998822e+01	(-1.69012460552047e+01dB,8.17861087528308e+01°)
4.62675273562123e+01	(-1.68422773334563e+01dB,8.17297642111884e+01°)
4.65893434587390e+01	(-1.67833255236523e+01dB,8.16730440341330e+01°)
4.69133979692759e+01	(-1.67243908519727e+01dB,8.16159459412269e+01°)
4.72397064571820e+01	(-1.66654735474855e+01dB,8.15584676428234e+01°)
4.75682846001096e+01	(-1.66065738421796e+01dB,8.15006068401317e+01°)
4.78991481847580e+01	(-1.65476919709982e+01dB,8.14423612252841e+01°)
4.82323131076312e+01	(-1.64888281718724e+01dB,8.13837284814062e+01°)
4.85677953758027e+01	(-1.64299826857555e+01dB,8.13247062826897e+01°)
4.89056111076836e+01	(-1.63711557566566e+01dB,8.12652922944688e+01°)
4.92457765337975e+01	(-1.63123476316755e+01dB,8.12054841732986e+01°)
4.95883079975603e+01	(-1.62535585610372e+01dB,8.11452795670378e+01°)
4.99332219560653e+01	(-1.61947887981272e+01dB,8.10846761149333e+01°)
5.02805349808740e+01	(-1.61360385995263e+01dB,8.10236714477091e+01°)
5.06302637588121e+01	(-1.60773082250466e+01dB,8.09622631876573e+01°)
5.09824250927714e+01	(-1.60185979377669e+01dB,8.09004489487334e+01°)
5.13370359025171e+01	(-1.59599080040692e+01dB,8.08382263366544e+01°)
5.16941132255006e+01	(-1.59012386936746e+01dB,8.07755929490009e+01°)
5.20536742176783e+01	(-1.58425902796798e+01dB,8.07125463753215e+01°)
5.24157361543355e+01	(-1.57839630385946e+01dB,8.06490841972425e+01°)
5.27803164309167e+01	(-1.57253572503780e+01dB,8.05852039885796e+01°)
5.31474325638614e+01	(-1.56667731984764e+01dB,8.05209033154544e+01°)
5.35171021914454e+01	(-1.56082111698606e+01dB,8.04561797364139e+01°)
5.38893430746286e+01	(-1.55496714550638e+01dB,8.03910308025546e+01°)
5.42641730979079e+01	(-1.54911543482197e+01dB,8.03254540576499e+01°)
5.46416102701768e+01	(-1.54326601471004e+01dB,8.02594470382816e+01°)
5.50216727255908e+01	(-1.53741891531555e+01dB,8.01930072739755e+01°)
5.54043787244380e+01	(-1.53157416715505e+01dB,8.01261322873413e+01°)
5.57897466540173e+01	(-1.52573180112055e+01dB,8.00588195942163e+01°)
5.61777950295209e+01	(-1.51989184848349e+01dB,7.99910667038137e+01°)
5.65685424949249e+01	(-1.51405434089864e+01dB,7.99228711188751e+01°)
5.69620078238839e+01	(-1.50821931040806e+01dB,7.98542303358271e+01°)
5.73582099206342e+01	(-1.50238678944511e+01dB,7.97851418449432e+01°)
5.77571678209009e+01	(-1.49655681083841e+01dB,7.97156031305092e+01°)
5.81589006928135e+01	(-1.49072940781588e+01dB,7.96456116709940e+01°)
5.85634278378261e+01	(-1.48490461400876e+01dB,7.95751649392251e+01°)
5.89707686916452e+01	(-1.47908246345570e+01dB,7.95042604025680e+01°)
5.93809428251631e+01	(-1.47326299060679e+01dB,7.94328955231119e+01°)
5.97939699453987e+01	(-1.46744623032766e+01dB,7.93610677578589e+01°)
6.02098698964439e+01	(-1.46163221790360e+01dB,7.92887745589193e+01°)
6.06286626604171e+01	(-1.45582098904365e+01dB,7.92160133737113e+01°)
6.10503683584236e+01	(-1.45001257988477e+01dB,7.91427816451663e+01°)
6.14750072515217e+01	(-1.44420702699597e+01dB,7.90690768119393e+01°)
6.19025997416968e+01	(-1.43840436738245e+01dB,7.89948963086245e+01°)
6.23331663728412e+01	(-1.43260463848979e+01dB,7.89202375659767e+01°)
6.27667278317413e+01	(-1.42680787820817e+01dB,7.88450980111378e+01°)
6.32033049490714e+01	(-1.42101412487648e+01dB,7.87694750678692e+01°)
6.36429187003948e+01	(-1.41522341728660e+01dB,7.86933661567896e+01°)
6.40855902071711e+01	(-1.40943579468758e+01dB,7.86167686956186e+01°)
6.45313407377714e+01	(-1.40365129678984e+01dB,7.85396800994267e+01°)
6.49801917085002e+01	(-1.39786996376943e+01dB,7.84620977808900e+01°)
6.54321646846238e+01	(-1.39209183627225e+01dB,7.83840191505523e+01°)
6.58872813814072e+01	(-1.38631695541826e+01dB,7.83054416170922e+01°)
6.63455636651567e+01	(-1.38054536280575e+01dB,7.82263625875969e+01°)
6.68070335542709e+01	(-1.37477710051556e+01dB,7.81467794678423e+01°)
6.72717132202986e+01	(-1.36901221111531e+01dB,7.80666896625791e+01°)
6.77396249890036e+01	(-1.36325073766367e+01dB,7.79860905758256e+01°)
6.82107913414380e+01	(-1.35749272371456e+01dB,7.79049796111669e+01°)
6.86852349150217e+01	(-1.35173821332143e+01dB,7.78233541720605e+01°)
6.91629785046307e+01	(-1.34598725104141e+01dB,7.77412116621493e+01°)
6.96440450636914e+01	(-1.34023988193964e+01dB,7.76585494855803e+01°)
7.01284577052843e+01	(-1.33449615159336e+01dB,7.75753650473308e+01°)
7.06162397032539e+01	(-1.32875610609624e+01dB,7.74916557535417e+01°)
7.11074144933271e+01	(-1.32301979206247e+01dB,7.74074190118572e+01°)
7.16020056742393e+01	(-1.31728725663101e+01dB,7.73226522317721e+01°)
