Freq.	V(vout)/V(vin)
1.00000000000000e+01	(-4.28420090914848e-03dB,-1.79940817416164e+00°)
1.00695555005672e+01	(-4.34397622534883e-03dB,-1.81191573373580e+00°)
1.01395947979003e+01	(-4.40458513383569e-03dB,-1.82451011571191e+00°)
1.02101212570719e+01	(-4.46603924753582e-03dB,-1.83719192032475e+00°)
1.02811382665607e+01	(-4.52835034081504e-03dB,-1.84996175190726e+00°)
1.03526492384138e+01	(-4.59153035172909e-03dB,-1.86282021891746e+00°)
1.04246576084112e+01	(-4.65559138428263e-03dB,-1.87576793396550e+00°)
1.04971668362307e+01	(-4.72054571072262e-03dB,-1.88880551384083e+00°)
1.05701804056138e+01	(-4.78640577387269e-03dB,-1.90193357953964e+00°)
1.06437018245336e+01	(-4.85318418949026e-03dB,-1.91515275629228e+00°)
1.07177346253629e+01	(-4.92089374866281e-03dB,-1.92846367359099e+00°)
1.07922823650443e+01	(-4.98954742022789e-03dB,-1.94186696521770e+00°)
1.08673486252606e+01	(-5.05915835323709e-03dB,-1.95536326927202e+00°)
1.09429370126074e+01	(-5.12973987944581e-03dB,-1.96895322819937e+00°)
1.10190511587661e+01	(-5.20130551584020e-03dB,-1.98263748881928e+00°)
1.10956947206785e+01	(-5.27386896720146e-03dB,-1.99641670235381e+00°)
1.11728713807222e+01	(-5.34744412869592e-03dB,-2.01029152445621e+00°)
1.12505848468881e+01	(-5.42204508850911e-03dB,-2.02426261523963e+00°)
1.13288388529580e+01	(-5.49768613052120e-03dB,-2.03833063930604e+00°)
1.14076371586843e+01	(-5.57438173699845e-03dB,-2.05249626577536e+00°)
1.14869835499704e+01	(-5.65214659134725e-03dB,-2.06676016831464e+00°)
1.15668818390529e+01	(-5.73099558088236e-03dB,-2.08112302516746e+00°)
1.16473358646846e+01	(-5.81094379965099e-03dB,-2.09558551918350e+00°)
1.17283494923188e+01	(-5.89200655128270e-03dB,-2.11014833784823e+00°)
1.18099266142953e+01	(-5.97419935189035e-03dB,-2.12481217331279e+00°)
1.18920711500272e+01	(-6.05753793299504e-03dB,-2.13957772242398e+00°)
1.19747870461893e+01	(-6.14203824451074e-03dB,-2.15444568675450e+00°)
1.20580782769076e+01	(-6.22771645774628e-03dB,-2.16941677263322e+00°)
1.21419488439505e+01	(-6.31458896847382e-03dB,-2.18449169117574e+00°)
1.22264027769207e+01	(-6.40267240001570e-03dB,-2.19967115831501e+00°)
1.23114441334492e+01	(-6.49198360639101e-03dB,-2.21495589483215e+00°)
1.23970769993899e+01	(-6.58253967549319e-03dB,-2.23034662638744e+00°)
1.24833054890161e+01	(-6.67435793231877e-03dB,-2.24584408355143e+00°)
1.25701337452183e+01	(-6.76745594223672e-03dB,-2.26144900183623e+00°)
1.26575659397028e+01	(-6.86185151429850e-03dB,-2.27716212172699e+00°)
1.27456062731927e+01	(-6.95756270459739e-03dB,-2.29298418871346e+00°)
1.28342589756291e+01	(-7.05460781968697e-03dB,-2.30891595332179e+00°)
1.29235283063750e+01	(-7.15300542001418e-03dB,-2.32495817114642e+00°)
1.30134185544194e+01	(-7.25277432342122e-03dB,-2.34111160288219e+00°)
1.31039340385837e+01	(-7.35393360870558e-03dB,-2.35737701435653e+00°)
1.31950791077290e+01	(-7.45650261919392e-03dB,-2.37375517656192e+00°)
1.32868581409652e+01	(-7.56050096640023e-03dB,-2.39024686568837e+00°)
1.33792755478612e+01	(-7.66594853370661e-03dB,-2.40685286315616e+00°)
1.34723357686569e+01	(-7.77286548011392e-03dB,-2.42357395564868e+00°)
1.35660432744768e+01	(-7.88127224402956e-03dB,-2.44041093514549e+00°)
1.36604025675440e+01	(-7.99118954711756e-03dB,-2.45736459895544e+00°)
1.37554181813975e+01	(-8.10263839818584e-03dB,-2.47443574975000e+00°)
1.38510946811093e+01	(-8.21564009714161e-03dB,-2.49162519559679e+00°)
1.39474366635041e+01	(-8.33021623899666e-03dB,-2.50893374999314e+00°)
1.40444487573800e+01	(-8.44638871791959e-03dB,-2.52636223189995e+00°)
1.41421356237310e+01	(-8.56417973134767e-03dB,-2.54391146577555e+00°)
1.42405019559708e+01	(-8.68361178415542e-03dB,-2.56158228160988e+00°)
1.43395524801583e+01	(-8.80470769287996e-03dB,-2.57937551495863e+00°)
1.44392919552250e+01	(-8.92749059000038e-03dB,-2.59729200697773e+00°)
1.45397251732032e+01	(-9.05198392827292e-03dB,-2.61533260445780e+00°)
1.46408569594563e+01	(-9.17821148513478e-03dB,-2.63349815985893e+00°)
1.47426921729111e+01	(-9.30619736715810e-03dB,-2.65178953134542e+00°)
1.48452357062906e+01	(-9.43596601455910e-03dB,-2.67020758282086e+00°)
1.49484924863494e+01	(-9.56754220579136e-03dB,-2.68875318396318e+00°)
1.50524674741107e+01	(-9.70095106216726e-03dB,-2.70742721025999e+00°)
1.51571656651040e+01	(-9.83621805257436e-03dB,-2.72623054304394e+00°)
1.52625920896057e+01	(-9.97336899822972e-03dB,-2.74516406952834e+00°)
1.53687518128802e+01	(-1.01124300775157e-02dB,-2.76422868284282e+00°)
1.54756499354240e+01	(-1.02534278308666e-02dB,-2.78342528206919e+00°)
1.55832915932101e+01	(-1.03963891657374e-02dB,-2.80275477227744e+00°)
1.56916819579351e+01	(-1.05413413616259e-02dB,-2.82221806456182e+00°)
1.58008262372676e+01	(-1.06883120751606e-02dB,-2.84181607607717e+00°)
1.59107296750985e+01	(-1.08373293452690e-02dB,-2.86154973007523e+00°)
1.60213975517925e+01	(-1.09884215984116e-02dB,-2.88141995594124e+00°)
1.61328351844426e+01	(-1.11416176538778e-02dB,-2.90142768923054e+00°)
1.62450479271248e+01	(-1.12969467291518e-02dB,-2.92157387170543e+00°)
1.63580411711557e+01	(-1.14544384453747e-02dB,-2.94185945137204e+00°)
1.64718203453516e+01	(-1.16141228328469e-02dB,-2.96228538251737e+00°)
1.65863909162889e+01	(-1.17760303366210e-02dB,-2.98285262574653e+00°)
1.67017583885675e+01	(-1.19401918221726e-02dB,-3.00356214801996e+00°)
1.68179283050744e+01	(-1.21066385811309e-02dB,-3.02441492269090e+00°)
1.69349062472506e+01	(-1.22754023371093e-02dB,-3.04541192954293e+00°)
1.70526978353592e+01	(-1.24465152515953e-02dB,-3.06655415482761e+00°)
1.71713087287552e+01	(-1.26200099299115e-02dB,-3.08784259130224e+00°)
1.72907446261574e+01	(-1.27959194272956e-02dB,-3.10927823826780e+00°)
1.74110112659226e+01	(-1.29742772550060e-02dB,-3.13086210160690e+00°)
1.75321144263208e+01	(-1.31551173865562e-02dB,-3.15259519382192e+00°)
1.76540599258132e+01	(-1.33384742639995e-02dB,-3.17447853407323e+00°)
1.77768536233315e+01	(-1.35243828043257e-02dB,-3.19651314821748e+00°)
1.79005014185596e+01	(-1.37128784059079e-02dB,-3.21870006884603e+00°)
1.80250092522167e+01	(-1.39039969550691e-02dB,-3.24104033532351e+00°)
1.81503831063433e+01	(-1.40977748327187e-02dB,-3.26353499382640e+00°)
1.82766290045881e+01	(-1.42942489210694e-02dB,-3.28618509738176e+00°)
1.84037530124976e+01	(-1.44934566104605e-02dB,-3.30899170590601e+00°)
1.85317612378075e+01	(-1.46954358062649e-02dB,-3.33195588624386e+00°)
1.86606598307363e+01	(-1.49002249358822e-02dB,-3.35507871220725e+00°)
1.87904549842804e+01	(-1.51078629558203e-02dB,-3.37836126461442e+00°)
1.89211529345120e+01	(-1.53183893588950e-02dB,-3.40180463132906e+00°)
1.90527599608789e+01	(-1.55318441814883e-02dB,-3.42540990729949e+00°)
1.91852823865054e+01	(-1.57482680109351e-02dB,-3.44917819459797e+00°)
1.93187265784970e+01	(-1.59677019929855e-02dB,-3.47311060246002e+00°)
1.94530989482459e+01	(-1.61901878393704e-02dB,-3.49720824732389e+00°)
1.95884059517387e+01	(-1.64157678354780e-02dB,-3.52147225286995e+00°)
1.97246540898673e+01	(-1.66444848481105e-02dB,-3.54590375006029e+00°)
1.98618499087409e+01	(-1.68763823333613e-02dB,-3.57050387717828e+00°)
2.00000000000001e+01	(-1.71115043445819e-02dB,-3.59527377986820e+00°)
2.01391110011345e+01	(-1.73498955404628e-02dB,-3.62021461117491e+00°)
2.02791895958007e+01	(-1.75916011932114e-02dB,-3.64532753158356e+00°)
2.04202425141440e+01	(-1.78366671968437e-02dB,-3.67061370905938e+00°)
2.05622765331215e+01	(-1.80851400755799e-02dB,-3.69607431908742e+00°)
2.07052984768277e+01	(-1.83370669923500e-02dB,-3.72171054471235e+00°)
2.08493152168226e+01	(-1.85924957574161e-02dB,-3.74752357657833e+00°)
2.09943336724615e+01	(-1.88514748370910e-02dB,-3.77351461296883e+00°)
2.11403608112278e+01	(-1.91140533625893e-02dB,-3.79968485984648e+00°)
2.12874036490674e+01	(-1.93802811389782e-02dB,-3.82603553089293e+00°)
2.14354692507260e+01	(-1.96502086542568e-02dB,-3.85256784754874e+00°)
2.15845647300887e+01	(-1.99238870885428e-02dB,-3.87928303905318e+00°)
2.17346972505213e+01	(-2.02013683233799e-02dB,-3.90618234248415e+00°)
2.18858740252150e+01	(-2.04827049511692e-02dB,-3.93326700279792e+00°)
2.20381023175324e+01	(-2.07679502847218e-02dB,-3.96053827286903e+00°)
2.21913894413571e+01	(-2.10571583669315e-02dB,-3.98799741352997e+00°)
2.23457427614446e+01	(-2.13503839805681e-02dB,-4.01564569361099e+00°)
2.25011696937764e+01	(-2.16476826582111e-02dB,-4.04348438997978e+00°)
2.26576777059162e+01	(-2.19491106922944e-02dB,-4.07151478758111e+00°)
2.28152743173687e+01	(-2.22547251452908e-02dB,-4.09973817947643e+00°)
2.29739670999409e+01	(-2.25645838600180e-02dB,-4.12815586688340e+00°)
2.31337636781060e+01	(-2.28787454700883e-02dB,-4.15676915921538e+00°)
2.32946717293693e+01	(-2.31972694104792e-02dB,-4.18557937412077e+00°)
2.34566989846378e+01	(-2.35202159282425e-02dB,-4.21458783752236e+00°)
2.36198532285908e+01	(-2.38476460933612e-02dB,-4.24379588365651e+00°)
2.37841423000546e+01	(-2.41796218097244e-02dB,-4.27320485511227e+00°)
2.39495740923788e+01	(-2.45162058262555e-02dB,-4.30281610287039e+00°)
2.41161565538154e+01	(-2.48574617481795e-02dB,-4.33263098634221e+00°)
2.42838976879012e+01	(-2.52034540484294e-02dB,-4.36265087340839e+00°)
2.44528055538416e+01	(-2.55542480792031e-02dB,-4.39287714045760e+00°)
2.46228882668986e+01	(-2.59099100836544e-02dB,-4.42331117242495e+00°)
2.47941539987800e+01	(-2.62705072077429e-02dB,-4.45395436283037e+00°)
2.49666109780325e+01	(-2.66361075122290e-02dB,-4.48480811381674e+00°)
2.51402674904368e+01	(-2.70067799848189e-02dB,-4.51587383618795e+00°)
2.53151318794059e+01	(-2.73825945524675e-02dB,-4.54715294944669e+00°)
2.54912125463855e+01	(-2.77636220938189e-02dB,-4.57864688183210e+00°)
2.56685179512583e+01	(-2.81499344518272e-02dB,-4.61035707035719e+00°)
2.58470566127501e+01	(-2.85416044465082e-02dB,-4.64228496084609e+00°)
2.60268371088389e+01	(-2.89387058878763e-02dB,-4.67443200797104e+00°)
2.62078680771675e+01	(-2.93413135890212e-02dB,-4.70679967528919e+00°)
2.63901582154582e+01	(-2.97495033793587e-02dB,-4.73938943527909e+00°)
2.65737162819305e+01	(-3.01633521180392e-02dB,-4.77220276937698e+00°)
2.67585510957225e+01	(-3.05829377075286e-02dB,-4.80524116801282e+00°)
2.69446715373141e+01	(-3.10083391073521e-02dB,-4.83850613064601e+00°)
2.71320865489537e+01	(-3.14396363480044e-02dB,-4.87199916580081e+00°)
2.73208051350882e+01	(-3.18769105450429e-02dB,-4.90572179110150e+00°)
2.75108363627952e+01	(-3.23202439133387e-02dB,-4.93967553330722e+00°)
2.77021893622188e+01	(-3.27697197815168e-02dB,-4.97386192834641e+00°)
2.78948733270084e+01	(-3.32254226065598e-02dB,-5.00828252135101e+00°)
2.80888975147603e+01	(-3.36874379886007e-02dB,-5.04293886669023e+00°)
2.82842712474622e+01	(-3.41558526858827e-02dB,-5.07783252800400e+00°)
2.84810039119418e+01	(-3.46307546299197e-02dB,-5.11296507823599e+00°)
2.86791049603169e+01	(-3.51122329408215e-02dB,-5.14833809966624e+00°)
2.88785839104503e+01	(-3.56003779428188e-02dB,-5.18395318394345e+00°)
2.90794503464065e+01	(-3.60952811799628e-02dB,-5.21981193211670e+00°)
2.92817139189128e+01	(-3.65970354320262e-02dB,-5.25591595466689e+00°)
2.94853843458224e+01	(-3.71057347305833e-02dB,-5.29226687153757e+00°)
2.96904714125813e+01	(-3.76214743752975e-02dB,-5.32886631216540e+00°)
2.98969849726991e+01	(-3.81443509503879e-02dB,-5.36571591551008e+00°)
3.01049349482217e+01	(-3.86744623413014e-02dB,-5.40281733008374e+00°)
3.03143313302083e+01	(-3.92119077515799e-02dB,-5.44017221397986e+00°)
3.05251841792116e+01	(-3.97567877199314e-02dB,-5.47778223490162e+00°)
3.07375036257606e+01	(-4.03092041375028e-02dB,-5.51564907018967e+00°)
3.09512998708482e+01	(-4.08692602653392e-02dB,-5.55377440684936e+00°)
3.11665831864204e+01	(-4.14370607520843e-02dB,-5.59215994157731e+00°)
3.13833639158704e+01	(-4.20127116518573e-02dB,-5.63080738078743e+00°)
3.16016524745355e+01	(-4.25963204423463e-02dB,-5.66971844063628e+00°)
3.18214593501971e+01	(-4.31879960431244e-02dB,-5.70889484704773e+00°)
3.20427951035853e+01	(-4.37878488341670e-02dB,-5.74833833573700e+00°)
3.22656703688855e+01	(-4.43959906745826e-02dB,-5.78805065223396e+00°)
3.24900958542498e+01	(-4.50125349215753e-02dB,-5.82803355190575e+00°)
3.27160823423117e+01	(-4.56375964496097e-02dB,-5.86828879997863e+00°)
3.29436406907033e+01	(-4.62712916698072e-02dB,-5.90881817155904e+00°)
3.31727818325781e+01	(-4.69137385495495e-02dB,-5.94962345165398e+00°)
3.34035167771352e+01	(-4.75650566323266e-02dB,-5.99070643519044e+00°)
3.36358566101490e+01	(-4.82253670578004e-02dB,-6.03206892703408e+00°)
3.38698124945015e+01	(-4.88947925820855e-02dB,-6.07371274200711e+00°)
3.41053956707187e+01	(-4.95734575982823e-02dB,-6.11563970490511e+00°)
3.43426174575106e+01	(-5.02614881572212e-02dB,-6.15785165051318e+00°)
3.45814892523151e+01	(-5.09590119884506e-02dB,-6.20035042362094e+00°)
3.48220225318454e+01	(-5.16661585214522e-02dB,-6.24313787903674e+00°)
3.50642288526419e+01	(-5.23830589070996e-02dB,-6.28621588160079e+00°)
3.53081198516267e+01	(-5.31098460393548e-02dB,-6.32958630619735e+00°)
3.55537072466633e+01	(-5.38466545771974e-02dB,-6.37325103776581e+00°)
3.58010028371194e+01	(-5.45936209668029e-02dB,-6.41721197131078e+00°)
3.60500185044337e+01	(-5.53508834639595e-02dB,-6.46147101191106e+00°)
3.63007662126869e+01	(-5.61185821567282e-02dB,-6.50603007472748e+00°)
3.65532580091765e+01	(-5.68968589883589e-02dB,-6.55089108500961e+00°)
3.68075060249955e+01	(-5.76858577804516e-02dB,-6.59605597810125e+00°)
3.70635224756154e+01	(-5.84857242563452e-02dB,-6.64152669944483e+00°)
3.73213196614728e+01	(-5.92966060648022e-02dB,-6.68730520458438e+00°)
3.75809099685610e+01	(-6.01186528038982e-02dB,-6.73339345916744e+00°)
3.78423058690244e+01	(-6.09520160452002e-02dB,-6.77979343894546e+00°)
3.81055199217580e+01	(-6.17968493581825e-02dB,-6.82650712977309e+00°)
3.83705647730111e+01	(-6.26533083349116e-02dB,-6.87353652760585e+00°)
3.86374531569944e+01	(-6.35215506149735e-02dB,-6.92088363849665e+00°)
3.89061978964920e+01	(-6.44017359106791e-02dB,-6.96855047859065e+00°)
3.91768119034776e+01	(-6.52940260325203e-02dB,-7.01653907411883e+00°)
3.94493081797350e+01	(-6.61985849148886e-02dB,-7.06485146138995e+00°)
3.97236998174820e+01	(-6.71155786420644e-02dB,-7.11348968678096e+00°)
4.00000000000006e+01	(-6.80451754744670e-02dB,-7.16245580672593e+00°)
4.02782220022694e+01	(-6.89875458751622e-02dB,-7.21175188770322e+00°)
4.05583791916018e+01	(-6.99428625366520e-02dB,-7.26138000622114e+00°)
4.08404850282883e+01	(-7.09113004079330e-02dB,-7.31134224880181e+00°)
4.11245530662433e+01	(-7.18930367218018e-02dB,-7.36164071196333e+00°)
4.14105969536557e+01	(-7.28882510224637e-02dB,-7.41227750220018e+00°)
4.16986304336455e+01	(-7.38971251933825e-02dB,-7.46325473596180e+00°)
4.19886673449233e+01	(-7.49198434854237e-02dB,-7.51457453962929e+00°)
4.22807216224559e+01	(-7.59565925452558e-02dB,-7.56623904949030e+00°)
4.25748072981351e+01	(-7.70075614440429e-02dB,-7.61825041171181e+00°)
4.28709385014524e+01	(-7.80729417063886e-02dB,-7.67061078231116e+00°)
4.31691294601778e+01	(-7.91529273395758e-02dB,-7.72332232712482e+00°)
4.34693945010430e+01	(-8.02477148630751e-02dB,-7.77638722177527e+00°)
4.37717480504303e+01	(-8.13575033383142e-02dB,-7.82980765163565e+00°)
4.40762046350651e+01	(-8.24824943987591e-02dB,-7.88358581179228e+00°)
4.43827788827145e+01	(-8.36228922802261e-02dB,-7.93772390700500e+00°)
4.46914855228895e+01	(-8.47789038515209e-02dB,-7.99222415166521e+00°)
4.50023393875531e+01	(-8.59507386453030e-02dB,-8.04708876975162e+00°)
4.53153554118327e+01	(-8.71386088892720e-02dB,-8.10231999478365e+00°)
4.56305486347377e+01	(-8.83427295376074e-02dB,-8.15792006977240e+00°)
4.59479341998822e+01	(-8.95633183026838e-02dB,-8.21389124716921e+00°)
4.62675273562123e+01	(-9.08005956870828e-02dB,-8.27023578881164e+00°)
4.65893434587390e+01	(-9.20547850158533e-02dB,-8.32695596586700e+00°)
4.69133979692759e+01	(-9.33261124690750e-02dB,-8.38405405877313e+00°)
4.72397064571820e+01	(-9.46148071146795e-02dB,-8.44153235717662e+00°)
4.75682846001096e+01	(-9.59211009415575e-02dB,-8.49939315986829e+00°)
4.78991481847580e+01	(-9.72452288929264e-02dB,-8.55763877471585e+00°)
4.82323131076312e+01	(-9.85874288999947e-02dB,-8.61627151859377e+00°)
4.85677953758027e+01	(-9.99479419158682e-02dB,-8.67529371731025e+00°)
4.89056111076836e+01	(-1.01327011949757e-01dB,-8.73470770553122e+00°)
4.92457765337975e+01	(-1.02724886101433e-01dB,-8.79451582670139e+00°)
4.95883079975603e+01	(-1.04141814595967e-01dB,-8.85472043296221e+00°)
4.99332219560653e+01	(-1.05578050818723e-01dB,-8.91532388506664e+00°)
5.02805349808740e+01	(-1.07033851350630e-01dB,-8.97632855229089e+00°)
5.06302637588121e+01	(-1.08509476003716e-01dB,-9.03773681234272e+00°)
5.09824250927714e+01	(-1.10005187856882e-01dB,-9.09955105126664e+00°)
5.13370359025171e+01	(-1.11521253291986e-01dB,-9.16177366334557e+00°)
5.16941132255006e+01	(-1.13057942030113e-01dB,-9.22440705099913e+00°)
5.20536742176783e+01	(-1.14615527168170e-01dB,-9.28745362467846e+00°)
5.24157361543355e+01	(-1.16194285215702e-01dB,-9.35091580275746e+00°)
5.27803164309167e+01	(-1.17794496131949e-01dB,-9.41479601142036e+00°)
5.31474325638614e+01	(-1.19416443363159e-01dB,-9.47909668454562e+00°)
5.35171021914454e+01	(-1.21060413880164e-01dB,-9.54382026358610e+00°)
5.38893430746286e+01	(-1.22726698216166e-01dB,-9.60896919744537e+00°)
5.42641730979079e+01	(-1.24415590504784e-01dB,-9.67454594235007e+00°)
5.46416102701768e+01	(-1.26127388518317e-01dB,-9.74055296171842e+00°)
5.50216727255908e+01	(-1.27862393706260e-01dB,-9.80699272602452e+00°)
5.54043787244380e+01	(-1.29620911234008e-01dB,-9.87386771265874e+00°)
5.57897466540173e+01	(-1.31403250021829e-01dB,-9.94118040578373e+00°)
5.61777950295209e+01	(-1.33209722784018e-01dB,-1.00089332961863e+01°)
5.65685424949249e+01	(-1.35040646068281e-01dB,-1.00771288811249e+01°)
5.69620078238839e+01	(-1.36896340295312e-01dB,-1.01457696641729e+01°)
5.73582099206342e+01	(-1.38777129798593e-01dB,-1.02148581550568e+01°)
5.77571678209009e+01	(-1.40683342864373e-01dB,-1.02843968694908e+01°)
5.81589006928135e+01	(-1.42615311771846e-01dB,-1.03543883290060e+01°)
5.85634278378261e+01	(-1.44573372833514e-01dB,-1.04248350607749e+01°)
5.89707686916452e+01	(-1.46557866435727e-01dB,-1.04957395974320e+01°)
5.93809428251631e+01	(-1.48569137079401e-01dB,-1.05671044768881e+01°)
5.97939699453987e+01	(-1.50607533420893e-01dB,-1.06389322421411e+01°)
6.02098698964439e+01	(-1.52673408313045e-01dB,-1.07112254410807e+01°)
6.06286626604171e+01	(-1.54767118846371e-01dB,-1.07839866262887e+01°)
6.10503683584236e+01	(-1.56889026390404e-01dB,-1.08572183548337e+01°)
6.14750072515217e+01	(-1.59039496635154e-01dB,-1.09309231880607e+01°)
6.19025997416968e+01	(-1.61218899632717e-01dB,-1.10051036913755e+01°)
6.23331663728412e+01	(-1.63427609839000e-01dB,-1.10797624340233e+01°)
6.27667278317413e+01	(-1.65666006155545e-01dB,-1.11549019888622e+01°)
6.32033049490714e+01	(-1.67934471971469e-01dB,-1.12305249321308e+01°)
6.36429187003948e+01	(-1.70233395205488e-01dB,-1.13066338432104e+01°)
6.40855902071711e+01	(-1.72563168348040e-01dB,-1.13832313043814e+01°)
6.45313407377714e+01	(-1.74924188503445e-01dB,-1.14603199005733e+01°)
6.49801917085002e+01	(-1.77316857432181e-01dB,-1.15379022191100e+01°)
6.54321646846238e+01	(-1.79741581593155e-01dB,-1.16159808494477e+01°)
6.58872813814072e+01	(-1.82198772186068e-01dB,-1.16945583829078e+01°)
6.63455636651567e+01	(-1.84688845193754e-01dB,-1.17736374124031e+01°)
6.68070335542709e+01	(-1.87212221424600e-01dB,-1.18532205321577e+01°)
6.72717132202986e+01	(-1.89769326554909e-01dB,-1.19333103374209e+01°)
6.77396249890036e+01	(-1.92360591171298e-01dB,-1.20139094241744e+01°)
6.82107913414380e+01	(-1.94986450813058e-01dB,-1.20950203888332e+01°)
6.86852349150217e+01	(-1.97647346014486e-01dB,-1.21766458279395e+01°)
6.91629785046307e+01	(-2.00343722347157e-01dB,-1.22587883378507e+01°)
6.96440450636914e+01	(-2.03076030462158e-01dB,-1.23414505144198e+01°)
