Freq.	V(vout)/V(vin)
1.00000000000000e+01	(-8.59444841424420e-04dB,-7.19947706871085e-01°)
1.00695555005672e+01	(-8.69016492327112e-04dB,-7.24954806583928e-01°)
1.01395947979003e+01	(-8.78721736954704e-04dB,-7.29996722239843e-01°)
1.02101212570719e+01	(-8.88562439606853e-04dB,-7.35073695767797e-01°)
1.02811382665607e+01	(-8.98540490579611e-04dB,-7.40185970774569e-01°)
1.03526492384138e+01	(-9.08657806546823e-04dB,-7.45333792556318e-01°)
1.04246576084112e+01	(-9.18916330917417e-04dB,-7.50517408110224e-01°)
1.04971668362307e+01	(-9.29318034210078e-04dB,-7.55737066146214e-01°)
1.05701804056138e+01	(-9.39864914432747e-04dB,-7.60993017098763e-01°)
1.06437018245336e+01	(-9.50558997464073e-04dB,-7.66285513138778e-01°)
1.07177346253629e+01	(-9.61402337443551e-04dB,-7.71614808185561e-01°)
1.07922823650443e+01	(-9.72397017168433e-04dB,-7.76981157918850e-01°)
1.08673486252606e+01	(-9.83545148480037e-04dB,-7.82384819790948e-01°)
1.09429370126074e+01	(-9.94848872685767e-04dB,-7.87826053038926e-01°)
1.10190511587661e+01	(-1.00631036096378e-03dB,-7.93305118696913e-01°)
1.10956947206785e+01	(-1.01793181477152e-03dB,-7.98822279608471e-01°)
1.11728713807222e+01	(-1.02971546627455e-03dB,-8.04377800439044e-01°)
1.12505848468881e+01	(-1.04166357878021e-03dB,-8.09971947688504e-01°)
1.13288388529580e+01	(-1.05377844715582e-03dB,-8.15604989703771e-01°)
1.14076371586843e+01	(-1.06606239828847e-03dB,-8.21277196691521e-01°)
1.14869835499704e+01	(-1.07851779151191e-03dB,-8.26988840730981e-01°)
1.15668818390529e+01	(-1.09114701907025e-03dB,-8.32740195786810e-01°)
1.16473358646846e+01	(-1.10395250657962e-03dB,-8.38531537722066e-01°)
1.17283494923188e+01	(-1.11693671348029e-03dB,-8.44363144311256e-01°)
1.18099266142953e+01	(-1.13010213351868e-03dB,-8.50235295253482e-01°)
1.18920711500272e+01	(-1.14345129522457e-03dB,-8.56148272185666e-01°)
1.19747870461893e+01	(-1.15698676238740e-03dB,-8.62102358695874e-01°)
1.20580782769076e+01	(-1.17071113455662e-03dB,-8.68097840336717e-01°)
1.21419488439505e+01	(-1.18462704753831e-03dB,-8.74135004638853e-01°)
1.22264027769207e+01	(-1.19873717389850e-03dB,-8.80214141124574e-01°)
1.23114441334492e+01	(-1.21304422347333e-03dB,-8.86335541321480e-01°)
1.23970769993899e+01	(-1.22755094389554e-03dB,-8.92499498776260e-01°)
1.24833054890161e+01	(-1.24226012111240e-03dB,-8.98706309068540e-01°)
1.25701337452183e+01	(-1.25717457992679e-03dB,-9.04956269824850e-01°)
1.26575659397028e+01	(-1.27229718452860e-03dB,-9.11249680732663e-01°)
1.27456062731927e+01	(-1.28763083905711e-03dB,-9.17586843554543e-01°)
1.28342589756291e+01	(-1.30317848815081e-03dB,-9.23968062142379e-01°)
1.29235283063750e+01	(-1.31894311750693e-03dB,-9.30393642451714e-01°)
1.30134185544194e+01	(-1.33492775445829e-03dB,-9.36863892556172e-01°)
1.31039340385837e+01	(-1.35113546855608e-03dB,-9.43379122661984e-01°)
1.31950791077290e+01	(-1.36756937215159e-03dB,-9.49939645122602e-01°)
1.32868581409652e+01	(-1.38423262099833e-03dB,-9.56545774453417e-01°)
1.33792755478612e+01	(-1.40112841485315e-03dB,-9.63197827346576e-01°)
1.34723357686569e+01	(-1.41825999808517e-03dB,-9.69896122685888e-01°)
1.35660432744768e+01	(-1.43563066030781e-03dB,-9.76640981561839e-01°)
1.36604025675440e+01	(-1.45324373699747e-03dB,-9.83432727286705e-01°)
1.37554181813975e+01	(-1.47110261014299e-03dB,-9.90271685409756e-01°)
1.38510946811093e+01	(-1.48921070888561e-03dB,-9.97158183732577e-01°)
1.39474366635041e+01	(-1.50757151017339e-03dB,-1.00409255232447e+00°)
1.40444487573800e+01	(-1.52618853943976e-03dB,-1.01107512353798e+00°)
1.41421356237310e+01	(-1.54506537126578e-03dB,-1.01810623202450e+00°)
1.42405019559708e+01	(-1.56420563006843e-03dB,-1.02518621475000e+00°)
1.43395524801583e+01	(-1.58361299079960e-03dB,-1.03231541101086e+00°)
1.44392919552250e+01	(-1.60329117963833e-03dB,-1.03949416244976e+00°)
1.45397251732032e+01	(-1.62324397471884e-03dB,-1.04672281307177e+00°)
1.46408569594563e+01	(-1.64347520684311e-03dB,-1.05400170926044e+00°)
1.47426921729111e+01	(-1.66398876021577e-03dB,-1.06133119979408e+00°)
1.48452357062906e+01	(-1.68478857318961e-03dB,-1.06871163586207e+00°)
1.49484924863494e+01	(-1.70587863901689e-03dB,-1.07614337108137e+00°)
1.50524674741107e+01	(-1.72726300662303e-03dB,-1.08362676151304e+00°)
1.51571656651040e+01	(-1.74894578136859e-03dB,-1.09116216567896e+00°)
1.52625920896057e+01	(-1.77093112583945e-03dB,-1.09874994457857e+00°)
1.53687518128802e+01	(-1.79322326064371e-03dB,-1.10639046170580e+00°)
1.54756499354240e+01	(-1.81582646522025e-03dB,-1.11408408306604e+00°)
1.55832915932101e+01	(-1.83874507866087e-03dB,-1.12183117719330e+00°)
1.56916819579351e+01	(-1.86198350053438e-03dB,-1.12963211516739e+00°)
1.58008262372676e+01	(-1.88554619172725e-03dB,-1.13748727063131e+00°)
1.59107296750985e+01	(-1.90943767530156e-03dB,-1.14539701980865e+00°)
1.60213975517925e+01	(-1.93366253736277e-03dB,-1.15336174152120e+00°)
1.61328351844426e+01	(-1.95822542793046e-03dB,-1.16138181720660e+00°)
1.62450479271248e+01	(-1.98313106182352e-03dB,-1.16945763093614e+00°)
1.63580411711557e+01	(-2.00838421958214e-03dB,-1.17758956943271e+00°)
1.64718203453516e+01	(-2.03398974835711e-03dB,-1.18577802208875e+00°)
1.65863909162889e+01	(-2.05995256285027e-03dB,-1.19402338098448e+00°)
1.67017583885675e+01	(-2.08627764625215e-03dB,-1.20232604090609e+00°)
1.68179283050744e+01	(-2.11297005120002e-03dB,-1.21068639936414e+00°)
1.69349062472506e+01	(-2.14003490072628e-03dB,-1.21910485661210e+00°)
1.70526978353592e+01	(-2.16747738926202e-03dB,-1.22758181566488e+00°)
1.71713087287552e+01	(-2.19530278360880e-03dB,-1.23611768231765e+00°)
1.72907446261574e+01	(-2.22351642395874e-03dB,-1.24471286516464e+00°)
1.74110112659226e+01	(-2.25212372490800e-03dB,-1.25336777561816e+00°)
1.75321144263208e+01	(-2.28113017649444e-03dB,-1.26208282792766e+00°)
1.76540599258132e+01	(-2.31054134524890e-03dB,-1.27085843919897e+00°)
1.77768536233315e+01	(-2.34036287525433e-03dB,-1.27969502941364e+00°)
1.79005014185596e+01	(-2.37060048922237e-03dB,-1.28859302144841e+00°)
1.80250092522167e+01	(-2.40125998959510e-03dB,-1.29755284109483e+00°)
1.81503831063433e+01	(-2.43234725964988e-03dB,-1.30657491707890e+00°)
1.82766290045881e+01	(-2.46386826461581e-03dB,-1.31565968108101e+00°)
1.84037530124976e+01	(-2.49582905282311e-03dB,-1.32480756775583e+00°)
1.85317612378075e+01	(-2.52823575685659e-03dB,-1.33401901475244e+00°)
1.86606598307363e+01	(-2.56109459471585e-03dB,-1.34329446273456e+00°)
1.87904549842804e+01	(-2.59441187102207e-03dB,-1.35263435540088e+00°)
1.89211529345120e+01	(-2.62819397820067e-03dB,-1.36203913950555e+00°)
1.90527599608789e+01	(-2.66244739771927e-03dB,-1.37150926487878e+00°)
1.91852823865054e+01	(-2.69717870131020e-03dB,-1.38104518444760e+00°)
1.93187265784970e+01	(-2.73239455223859e-03dB,-1.39064735425669e+00°)
1.94530989482459e+01	(-2.76810170656771e-03dB,-1.40031623348944e+00°)
1.95884059517387e+01	(-2.80430701444185e-03dB,-1.41005228448900e+00°)
1.97246540898673e+01	(-2.84101742140400e-03dB,-1.41985597277962e+00°)
1.98618499087409e+01	(-2.87823996971480e-03dB,-1.42972776708801e+00°)
2.00000000000001e+01	(-2.91598179970146e-03dB,-1.43966813936486e+00°)
2.01391110011345e+01	(-2.95425015111367e-03dB,-1.44967756480655e+00°)
2.02791895958007e+01	(-2.99305236450956e-03dB,-1.45975652187690e+00°)
2.04202425141440e+01	(-3.03239588264672e-03dB,-1.46990549232913e+00°)
2.05622765331215e+01	(-3.07228825191579e-03dB,-1.48012496122791e+00°)
2.07052984768277e+01	(-3.11273712377049e-03dB,-1.49041541697162e+00°)
2.08493152168226e+01	(-3.15375025618280e-03dB,-1.50077735131462e+00°)
2.09943336724615e+01	(-3.19533551513228e-03dB,-1.51121125938979e+00°)
2.11403608112278e+01	(-3.23750087609547e-03dB,-1.52171763973113e+00°)
2.12874036490674e+01	(-3.28025442557607e-03dB,-1.53229699429652e+00°)
2.14354692507260e+01	(-3.32360436263637e-03dB,-1.54294982849060e+00°)
2.15845647300887e+01	(-3.36755900046067e-03dB,-1.55367665118786e+00°)
2.17346972505213e+01	(-3.41212676794889e-03dB,-1.56447797475577e+00°)
2.18858740252150e+01	(-3.45731621131044e-03dB,-1.57535431507812e+00°)
2.20381023175324e+01	(-3.50313599569978e-03dB,-1.58630619157850e+00°)
2.21913894413571e+01	(-3.54959490686004e-03dB,-1.59733412724386e+00°)
2.23457427614446e+01	(-3.59670185280828e-03dB,-1.60843864864831e+00°)
2.25011696937764e+01	(-3.64446586551346e-03dB,-1.61962028597699e+00°)
2.26576777059162e+01	(-3.69289610263143e-03dB,-1.63087957305008e+00°)
2.28152743173687e+01	(-3.74200184924332e-03dB,-1.64221704734704e+00°)
2.29739670999409e+01	(-3.79179251961719e-03dB,-1.65363325003088e+00°)
2.31337636781060e+01	(-3.84227765901256e-03dB,-1.66512872597266e+00°)
2.32946717293693e+01	(-3.89346694547753e-03dB,-1.67670402377609e+00°)
2.34566989846378e+01	(-3.94537019171560e-03dB,-1.68835969580232e+00°)
2.36198532285908e+01	(-3.99799734692018e-03dB,-1.70009629819482e+00°)
2.37841423000546e+01	(-4.05135849869997e-03dB,-1.71191439090447e+00°)
2.39495740923788e+01	(-4.10546387497494e-03dB,-1.72381453771474e+00°)
2.41161565538154e+01	(-4.16032384592945e-03dB,-1.73579730626708e+00°)
2.42838976879012e+01	(-4.21594892598037e-03dB,-1.74786326808637e+00°)
2.44528055538416e+01	(-4.27234977577825e-03dB,-1.76001299860663e+00°)
2.46228882668986e+01	(-4.32953720423603e-03dB,-1.77224707719680e+00°)
2.47941539987800e+01	(-4.38752217057733e-03dB,-1.78456608718671e+00°)
2.49666109780325e+01	(-4.44631578641809e-03dB,-1.79697061589314e+00°)
2.51402674904368e+01	(-4.50592931788713e-03dB,-1.80946125464615e+00°)
2.53151318794059e+01	(-4.56637418775589e-03dB,-1.82203859881544e+00°)
2.54912125463855e+01	(-4.62766197761109e-03dB,-1.83470324783691e+00°)
2.56685179512583e+01	(-4.68980443005002e-03dB,-1.84745580523942e+00°)
2.58470566127501e+01	(-4.75281345092166e-03dB,-1.86029687867160e+00°)
2.60268371088389e+01	(-4.81670111157220e-03dB,-1.87322707992891e+00°)
2.62078680771675e+01	(-4.88147965113927e-03dB,-1.88624702498079e+00°)
2.63901582154582e+01	(-4.94716147889011e-03dB,-1.89935733399803e+00°)
2.65737162819305e+01	(-5.01375917654391e-03dB,-1.91255863138021e+00°)
2.67585510957225e+01	(-5.08128550069214e-03dB,-1.92585154578335e+00°)
2.69446715373141e+01	(-5.14975338519437e-03dB,-1.93923671014770e+00°)
2.71320865489537e+01	(-5.21917594363447e-03dB,-1.95271476172574e+00°)
2.73208051350882e+01	(-5.28956647182376e-03dB,-1.96628634211020e+00°)
2.75108363627952e+01	(-5.36093845029611e-03dB,-1.97995209726238e+00°)
2.77021893622188e+01	(-5.43330554687792e-03dB,-1.99371267754055e+00°)
2.78948733270084e+01	(-5.50668161927132e-03dB,-2.00756873772854e+00°)
2.80888975147603e+01	(-5.58108071768152e-03dB,-2.02152093706444e+00°)
2.82842712474622e+01	(-5.65651708748238e-03dB,-2.03556993926951e+00°)
2.84810039119418e+01	(-5.73300517190306e-03dB,-2.04971641257724e+00°)
2.86791049603169e+01	(-5.81055961476645e-03dB,-2.06396102976250e+00°)
2.88785839104503e+01	(-5.88919526326317e-03dB,-2.07830446817096e+00°)
2.90794503464065e+01	(-5.96892717076295e-03dB,-2.09274740974857e+00°)
2.92817139189128e+01	(-6.04977059965289e-03dB,-2.10729054107127e+00°)
2.94853843458224e+01	(-6.13174102423635e-03dB,-2.12193455337477e+00°)
2.96904714125813e+01	(-6.21485413364621e-03dB,-2.13668014258461e+00°)
2.98969849726991e+01	(-6.29912583482263e-03dB,-2.15152800934626e+00°)
3.01049349482217e+01	(-6.38457225550820e-03dB,-2.16647885905543e+00°)
3.03143313302083e+01	(-6.47120974730467e-03dB,-2.18153340188859e+00°)
3.05251841792116e+01	(-6.55905488876350e-03dB,-2.19669235283353e+00°)
3.07375036257606e+01	(-6.64812448850733e-03dB,-2.21195643172017e+00°)
3.09512998708482e+01	(-6.73843558840539e-03dB,-2.22732636325152e+00°)
3.11665831864204e+01	(-6.83000546679830e-03dB,-2.24280287703476e+00°)
3.13833639158704e+01	(-6.92285164176152e-03dB,-2.25838670761251e+00°)
3.16016524745355e+01	(-7.01699187438812e-03dB,-2.27407859449421e+00°)
3.18214593501971e+01	(-7.11244417216933e-03dB,-2.28987928218776e+00°)
3.20427951035853e+01	(-7.20922679236834e-03dB,-2.30578952023120e+00°)
3.22656703688855e+01	(-7.30735824547260e-03dB,-2.32181006322461e+00°)
3.24900958542498e+01	(-7.40685729868099e-03dB,-2.33794167086217e+00°)
3.27160823423117e+01	(-7.50774297943574e-03dB,-2.35418510796437e+00°)
3.29436406907033e+01	(-7.61003457901541e-03dB,-2.37054114451033e+00°)
3.31727818325781e+01	(-7.71375165616200e-03dB,-2.38701055567038e+00°)
3.34035167771352e+01	(-7.81891404075860e-03dB,-2.40359412183866e+00°)
3.36358566101490e+01	(-7.92554183757506e-03dB,-2.42029262866603e+00°)
3.38698124945015e+01	(-8.03365543004107e-03dB,-2.43710686709300e+00°)
3.41053956707187e+01	(-8.14327548407768e-03dB,-2.45403763338288e+00°)
3.43426174575106e+01	(-8.25442295199400e-03dB,-2.47108572915509e+00°)
3.45814892523151e+01	(-8.36711907642020e-03dB,-2.48825196141859e+00°)
3.48220225318454e+01	(-8.48138539429804e-03dB,-2.50553714260550e+00°)
3.50642288526419e+01	(-8.59724374092809e-03dB,-2.52294209060486e+00°)
3.53081198516267e+01	(-8.71471625407645e-03dB,-2.54046762879651e+00°)
3.55537072466633e+01	(-8.83382537812284e-03dB,-2.55811458608517e+00°)
3.58010028371194e+01	(-8.95459386827700e-03dB,-2.57588379693467e+00°)
3.60500185044337e+01	(-9.07704479485099e-03dB,-2.59377610140226e+00°)
3.63007662126869e+01	(-9.20120154758062e-03dB,-2.61179234517318e+00°)
3.65532580091765e+01	(-9.32708784001637e-03dB,-2.62993337959527e+00°)
3.68075060249955e+01	(-9.45472771396456e-03dB,-2.64820006171383e+00°)
3.70635224756154e+01	(-9.58414554399326e-03dB,-2.66659325430651e+00°)
3.73213196614728e+01	(-9.71536604199820e-03dB,-2.68511382591848e+00°)
3.75809099685610e+01	(-9.84841426183261e-03dB,-2.70376265089762e+00°)
3.78423058690244e+01	(-9.98331560399136e-03dB,-2.72254060942997e+00°)
3.81055199217580e+01	(-1.01200958203601e-02dB,-2.74144858757520e+00°)
3.83705647730111e+01	(-1.02587810190479e-02dB,-2.76048747730233e+00°)
3.86374531569944e+01	(-1.03993976692462e-02dB,-2.77965817652555e+00°)
3.89061978964920e+01	(-1.05419726061947e-02dB,-2.79896158914013e+00°)
3.91768119034776e+01	(-1.06865330361813e-02dB,-2.81839862505858e+00°)
3.94493081797350e+01	(-1.08331065416323e-02dB,-2.83797020024683e+00°)
3.97236998174820e+01	(-1.09817210862503e-02dB,-2.85767723676062e+00°)
4.00000000000006e+01	(-1.11324050202429e-02dB,-2.87752066278203e+00°)
4.02782220022694e+01	(-1.12851870856008e-02dB,-2.89750141265605e+00°)
4.05583791916018e+01	(-1.14400964214636e-02dB,-2.91762042692740e+00°)
4.08404850282883e+01	(-1.15971625695449e-02dB,-2.93787865237741e+00°)
4.11245530662433e+01	(-1.17564154796322e-02dB,-2.95827704206104e+00°)
4.14105969536557e+01	(-1.19178855151767e-02dB,-2.97881655534403e+00°)
4.16986304336455e+01	(-1.20816034589241e-02dB,-2.99949815794018e+00°)
4.19886673449233e+01	(-1.22476005186577e-02dB,-3.02032282194874e+00°)
4.22807216224559e+01	(-1.24159083329880e-02dB,-3.04129152589196e+00°)
4.25748072981351e+01	(-1.25865589772458e-02dB,-3.06240525475264e+00°)
4.28709385014524e+01	(-1.27595849694255e-02dB,-3.08366500001201e+00°)
4.31691294601778e+01	(-1.29350192762369e-02dB,-3.10507175968747e+00°)
4.34693945010430e+01	(-1.31128953192108e-02dB,-3.12662653837065e+00°)
4.37717480504303e+01	(-1.32932469809073e-02dB,-3.14833034726548e+00°)
4.40762046350651e+01	(-1.34761086111910e-02dB,-3.17018420422638e+00°)
4.43827788827145e+01	(-1.36615150336003e-02dB,-3.19218913379652e+00°)
4.46914855228895e+01	(-1.38495015517934e-02dB,-3.21434616724633e+00°)
4.50023393875531e+01	(-1.40401039560821e-02dB,-3.23665634261189e+00°)
4.53153554118327e+01	(-1.42333585300618e-02dB,-3.25912070473359e+00°)
4.56305486347377e+01	(-1.44293020573087e-02dB,-3.28174030529481e+00°)
4.59479341998822e+01	(-1.46279718281862e-02dB,-3.30451620286071e+00°)
4.62675273562123e+01	(-1.48294056467283e-02dB,-3.32744946291711e+00°)
4.65893434587390e+01	(-1.50336418376202e-02dB,-3.35054115790941e+00°)
4.69133979692759e+01	(-1.52407192532676e-02dB,-3.37379236728169e+00°)
4.72397064571820e+01	(-1.54506772809602e-02dB,-3.39720417751578e+00°)
4.75682846001096e+01	(-1.56635558501332e-02dB,-3.42077768217051e+00°)
4.78991481847580e+01	(-1.58793954397143e-02dB,-3.44451398192092e+00°)
4.82323131076312e+01	(-1.60982370855834e-02dB,-3.46841418459761e+00°)
4.85677953758027e+01	(-1.63201223881124e-02dB,-3.49247940522619e+00°)
4.89056111076836e+01	(-1.65450935198192e-02dB,-3.51671076606667e+00°)
4.92457765337975e+01	(-1.67731932331102e-02dB,-3.54110939665304e+00°)
4.95883079975603e+01	(-1.70044648681345e-02dB,-3.56567643383282e+00°)
4.99332219560653e+01	(-1.72389523607289e-02dB,-3.59041302180666e+00°)
5.02805349808740e+01	(-1.74767002504836e-02dB,-3.61532031216805e+00°)
5.06302637588121e+01	(-1.77177536888930e-02dB,-3.64039946394299e+00°)
5.09824250927714e+01	(-1.79621584476308e-02dB,-3.66565164362977e+00°)
5.13370359025171e+01	(-1.82099609269259e-02dB,-3.69107802523870e+00°)
5.16941132255006e+01	(-1.84612081640419e-02dB,-3.71667979033194e+00°)
5.20536742176783e+01	(-1.87159478418733e-02dB,-3.74245812806336e+00°)
5.24157361543355e+01	(-1.89742282976588e-02dB,-3.76841423521830e+00°)
5.27803164309167e+01	(-1.92360985317928e-02dB,-3.79454931625348e+00°)
5.31474325638614e+01	(-1.95016082167619e-02dB,-3.82086458333684e+00°)
5.35171021914454e+01	(-1.97708077062001e-02dB,-3.84736125638743e+00°)
5.38893430746286e+01	(-2.00437480440516e-02dB,-3.87404056311522e+00°)
5.42641730979079e+01	(-2.03204809738603e-02dB,-3.90090373906098e+00°)
5.46416102701768e+01	(-2.06010589481619e-02dB,-3.92795202763611e+00°)
5.50216727255908e+01	(-2.08855351380327e-02dB,-3.95518668016244e+00°)
5.54043787244380e+01	(-2.11739634427260e-02dB,-3.98260895591200e+00°)
5.57897466540173e+01	(-2.14663984994437e-02dB,-4.01022012214681e+00°)
5.61777950295209e+01	(-2.17628956932449e-02dB,-4.03802145415854e+00°)
5.65685424949249e+01	(-2.20635111670696e-02dB,-4.06601423530819e+00°)
5.69620078238839e+01	(-2.23683018318844e-02dB,-4.09419975706573e+00°)
5.73582099206342e+01	(-2.26773253769843e-02dB,-4.12257931904956e+00°)
5.77571678209009e+01	(-2.29906402803991e-02dB,-4.15115422906609e+00°)
5.81589006928135e+01	(-2.33083058194426e-02dB,-4.17992580314907e+00°)
5.85634278378261e+01	(-2.36303820814005e-02dB,-4.20889536559895e+00°)
5.89707686916452e+01	(-2.39569299743497e-02dB,-4.23806424902208e+00°)
5.93809428251631e+01	(-2.42880112381199e-02dB,-4.26743379436986e+00°)
5.97939699453987e+01	(-2.46236884553793e-02dB,-4.29700535097776e+00°)
6.02098698964439e+01	(-2.49640250628915e-02dB,-4.32678027660423e+00°)
6.06286626604171e+01	(-2.53090853628758e-02dB,-4.35675993746952e+00°)
6.10503683584236e+01	(-2.56589345345468e-02dB,-4.38694570829427e+00°)
6.14750072515217e+01	(-2.60136386457737e-02dB,-4.41733897233807e+00°)
6.19025997416968e+01	(-2.63732646649045e-02dB,-4.44794112143784e+00°)
6.23331663728412e+01	(-2.67378804727248e-02dB,-4.47875355604599e+00°)
6.27667278317413e+01	(-2.71075548745794e-02dB,-4.50977768526853e+00°)
6.32033049490714e+01	(-2.74823576126448e-02dB,-4.54101492690286e+00°)
6.36429187003948e+01	(-2.78623593783353e-02dB,-4.57246670747548e+00°)
6.40855902071711e+01	(-2.82476318248933e-02dB,-4.60413446227947e+00°)
6.45313407377714e+01	(-2.86382475801162e-02dB,-4.63601963541177e+00°)
6.49801917085002e+01	(-2.90342802592602e-02dB,-4.66812367981016e+00°)
6.54321646846238e+01	(-2.94358044780777e-02dB,-4.70044805729018e+00°)
6.58872813814072e+01	(-2.98428958660463e-02dB,-4.73299423858166e+00°)
6.63455636651567e+01	(-3.02556310797396e-02dB,-4.76576370336502e+00°)
6.68070335542709e+01	(-3.06740878163726e-02dB,-4.79875794030737e+00°)
6.72717132202986e+01	(-3.10983448275202e-02dB,-4.83197844709829e+00°)
6.77396249890036e+01	(-3.15284819329927e-02dB,-4.86542673048532e+00°)
6.82107913414380e+01	(-3.19645800348907e-02dB,-4.89910430630918e+00°)
6.86852349150217e+01	(-3.24067211318216e-02dB,-4.93301269953862e+00°)
6.91629785046307e+01	(-3.28549883333141e-02dB,-4.96715344430500e+00°)
6.96440450636914e+01	(-3.33094658743744e-02dB,-5.00152808393652e+00°)
