rx	V(n002)	I(ISense)
1.000000000000000e+00	2.849443e-02	2.849443e-02
1.099800000000000e+01	2.740111e-01	2.491463e-02
2.099600000000000e+01	4.647237e-01	2.213391e-02
3.099400000000000e+01	6.171397e-01	1.991159e-02
4.099200000000000e+01	7.417421e-01	1.809480e-02
5.098999999999999e+01	8.455076e-01	1.658183e-02
6.098800000000000e+01	9.332595e-01	1.530235e-02
7.098599999999999e+01	1.008439e+00	1.420617e-02
8.098399999999999e+01	1.073568e+00	1.325655e-02
9.098200000000000e+01	1.130536e+00	1.242593e-02
1.009800000000000e+02	1.180785e+00	1.169326e-02
1.109780000000000e+02	1.225439e+00	1.104218e-02
1.209760000000000e+02	1.265382e+00	1.045978e-02
1.309740000000000e+02	1.301323e+00	9.935735e-03
1.409720000000000e+02	1.333834e+00	9.461697e-03
1.509700000000000e+02	1.363385e+00	9.030832e-03
1.609680000000000e+02	1.390361e+00	8.637500e-03
1.709660000000000e+02	1.415086e+00	8.277000e-03
1.809640000000000e+02	1.437829e+00	7.945387e-03
1.909620000000000e+02	1.458820e+00	7.639321e-03
2.009600000000000e+02	1.478254e+00	7.355961e-03
2.109580000000000e+02	1.496298e+00	7.092871e-03
2.209560000000000e+02	1.513095e+00	6.847949e-03
2.309540000000000e+02	1.528772e+00	6.619378e-03
2.409520000000000e+02	1.543435e+00	6.405572e-03
2.509500000000000e+02	1.557181e+00	6.205146e-03
2.609480000000000e+02	1.570093e+00	6.016882e-03
2.709460000000000e+02	1.582245e+00	5.839705e-03
2.809440000000000e+02	1.593701e+00	5.672665e-03
2.909420000000000e+02	1.604520e+00	5.514915e-03
3.009400000000000e+02	1.614754e+00	5.365700e-03
3.109380000000000e+02	1.624448e+00	5.224349e-03
3.209360000000000e+02	1.633645e+00	5.090252e-03
3.309340000000000e+02	1.642382e+00	4.962868e-03
3.409320000000000e+02	1.650692e+00	4.841703e-03
3.509299999999999e+02	1.658606e+00	4.726314e-03
3.609280000000000e+02	1.666151e+00	4.616297e-03
3.709260000000000e+02	1.673353e+00	4.511286e-03
3.809240000000000e+02	1.680235e+00	4.410945e-03
3.909220000000000e+02	1.686817e+00	4.314971e-03
4.009200000000000e+02	1.693119e+00	4.223085e-03
4.109179999999999e+02	1.699158e+00	4.135030e-03
4.209160000000000e+02	1.704951e+00	4.050572e-03
4.309140000000000e+02	1.710511e+00	3.969496e-03
4.409120000000000e+02	1.715853e+00	3.891601e-03
4.509100000000000e+02	1.720990e+00	3.816704e-03
4.609080000000000e+02	1.725933e+00	3.744636e-03
4.709059999999999e+02	1.730692e+00	3.675240e-03
4.809040000000000e+02	1.735279e+00	3.608368e-03
4.909020000000000e+02	1.739701e+00	3.543887e-03
5.009000000000000e+02	1.743968e+00	3.481669e-03
5.108980000000000e+02	1.748088e+00	3.421599e-03
5.208960000000000e+02	1.752068e+00	3.363566e-03
5.308940000000000e+02	1.755916e+00	3.307469e-03
5.408919999999999e+02	1.759637e+00	3.253213e-03
5.508900000000000e+02	1.763238e+00	3.200707e-03
5.608879999999999e+02	1.766724e+00	3.149870e-03
5.708860000000000e+02	1.770102e+00	3.100622e-03
5.808840000000000e+02	1.773376e+00	3.052891e-03
5.908819999999999e+02	1.776550e+00	3.006607e-03
6.008800000000000e+02	1.779629e+00	2.961705e-03
6.108779999999999e+02	1.782618e+00	2.918125e-03
6.208760000000000e+02	1.785521e+00	2.875809e-03
6.308739999999999e+02	1.788340e+00	2.834702e-03
6.408720000000000e+02	1.791080e+00	2.794754e-03
6.508700000000000e+02	1.793743e+00	2.755916e-03
6.608679999999999e+02	1.796334e+00	2.718143e-03
6.708660000000000e+02	1.798854e+00	2.681392e-03
6.808639999999999e+02	1.801308e+00	2.645620e-03
6.908620000000000e+02	1.803696e+00	2.610791e-03
7.008599999999999e+02	1.806023e+00	2.576867e-03
7.108579999999999e+02	1.808290e+00	2.543813e-03
7.208560000000000e+02	1.810500e+00	2.511597e-03
7.308539999999999e+02	1.812654e+00	2.480186e-03
7.408520000000000e+02	1.814755e+00	2.449551e-03
7.508499999999999e+02	1.816805e+00	2.419664e-03
7.608480000000000e+02	1.818805e+00	2.390497e-03
7.708460000000000e+02	1.820758e+00	2.362025e-03
7.808439999999999e+02	1.822664e+00	2.334224e-03
7.908420000000000e+02	1.824527e+00	2.307069e-03
8.008399999999999e+02	1.826347e+00	2.280538e-03
8.108380000000000e+02	1.828125e+00	2.254612e-03
8.208359999999999e+02	1.829863e+00	2.229267e-03
8.308339999999999e+02	1.831562e+00	2.204487e-03
8.408320000000000e+02	1.833225e+00	2.180251e-03
8.508299999999999e+02	1.834851e+00	2.156542e-03
8.608280000000000e+02	1.836442e+00	2.133343e-03
8.708259999999999e+02	1.837999e+00	2.110638e-03
8.808240000000000e+02	1.839523e+00	2.088412e-03
8.908219999999999e+02	1.841016e+00	2.066648e-03
9.008199999999999e+02	1.842478e+00	2.045334e-03
9.108180000000000e+02	1.843910e+00	2.024455e-03
9.208159999999999e+02	1.845313e+00	2.003997e-03
9.308140000000000e+02	1.846688e+00	1.983949e-03
9.408119999999999e+02	1.848035e+00	1.964298e-03
9.508099999999999e+02	1.849357e+00	1.945033e-03
9.608080000000000e+02	1.850652e+00	1.926142e-03
9.708059999999999e+02	1.851923e+00	1.907614e-03
9.808040000000000e+02	1.853170e+00	1.889439e-03
9.908019999999999e+02	1.854393e+00	1.871608e-03
1.000800000000000e+03	1.855593e+00	1.854109e-03
1.010798000000000e+03	1.856771e+00	1.836935e-03
1.020796000000000e+03	1.857927e+00	1.820076e-03
1.030794000000000e+03	1.859062e+00	1.803524e-03
1.040792000000000e+03	1.860177e+00	1.787270e-03
1.050790000000000e+03	1.861272e+00	1.771307e-03
1.060788000000000e+03	1.862347e+00	1.755626e-03
1.070786000000000e+03	1.863404e+00	1.740220e-03
1.080784000000000e+03	1.864442e+00	1.725083e-03
1.090782000000000e+03	1.865462e+00	1.710206e-03
1.100780000000000e+03	1.866465e+00	1.695584e-03
1.110778000000000e+03	1.867451e+00	1.681210e-03
1.120776000000000e+03	1.868420e+00	1.667077e-03
1.130774000000000e+03	1.869373e+00	1.653180e-03
1.140772000000000e+03	1.870311e+00	1.639513e-03
1.150770000000000e+03	1.871233e+00	1.626070e-03
1.160768000000000e+03	1.872139e+00	1.612846e-03
1.170766000000000e+03	1.873032e+00	1.599835e-03
1.180764000000000e+03	1.873910e+00	1.587032e-03
1.190762000000000e+03	1.874774e+00	1.574432e-03
1.200760000000000e+03	1.875625e+00	1.562031e-03
1.210758000000000e+03	1.876462e+00	1.549824e-03
1.220756000000000e+03	1.877286e+00	1.537806e-03
1.230754000000000e+03	1.878098e+00	1.525973e-03
1.240752000000000e+03	1.878897e+00	1.514321e-03
1.250750000000000e+03	1.879684e+00	1.502845e-03
1.260748000000000e+03	1.880459e+00	1.491542e-03
1.270746000000000e+03	1.881223e+00	1.480408e-03
1.280744000000000e+03	1.881975e+00	1.469439e-03
1.290742000000000e+03	1.882716e+00	1.458631e-03
1.300740000000000e+03	1.883447e+00	1.447981e-03
1.310738000000000e+03	1.884166e+00	1.437485e-03
1.320736000000000e+03	1.884876e+00	1.427141e-03
1.330734000000000e+03	1.885575e+00	1.416944e-03
1.340732000000000e+03	1.886265e+00	1.406892e-03
1.350730000000000e+03	1.886944e+00	1.396981e-03
1.360728000000000e+03	1.887614e+00	1.387209e-03
1.370726000000000e+03	1.888275e+00	1.377573e-03
1.380724000000000e+03	1.888927e+00	1.368070e-03
1.390722000000000e+03	1.889570e+00	1.358697e-03
1.400720000000000e+03	1.890204e+00	1.349452e-03
1.410718000000000e+03	1.890830e+00	1.340331e-03
1.420716000000000e+03	1.891447e+00	1.331333e-03
1.430714000000000e+03	1.892056e+00	1.322455e-03
1.440712000000000e+03	1.892656e+00	1.313695e-03
1.450710000000000e+03	1.893249e+00	1.305050e-03
1.460708000000000e+03	1.893834e+00	1.296518e-03
1.470706000000000e+03	1.894412e+00	1.288097e-03
1.480704000000000e+03	1.894982e+00	1.279785e-03
1.490702000000000e+03	1.895545e+00	1.271579e-03
1.500700000000000e+03	1.896101e+00	1.263477e-03
1.510698000000000e+03	1.896649e+00	1.255479e-03
1.520696000000000e+03	1.897191e+00	1.247581e-03
1.530694000000000e+03	1.897726e+00	1.239781e-03
1.540692000000000e+03	1.898254e+00	1.232079e-03
1.550690000000000e+03	1.898776e+00	1.224471e-03
1.560688000000000e+03	1.899291e+00	1.216958e-03
1.570686000000000e+03	1.899800e+00	1.209535e-03
1.580684000000000e+03	1.900303e+00	1.202203e-03
1.590682000000000e+03	1.900800e+00	1.194959e-03
1.600680000000000e+03	1.901291e+00	1.187802e-03
1.610678000000000e+03	1.901776e+00	1.180730e-03
1.620676000000000e+03	1.902255e+00	1.173742e-03
1.630674000000000e+03	1.902729e+00	1.166836e-03
1.640672000000000e+03	1.903197e+00	1.160010e-03
1.650670000000000e+03	1.903659e+00	1.153265e-03
1.660668000000000e+03	1.904117e+00	1.146597e-03
1.670666000000000e+03	1.904569e+00	1.140006e-03
1.680664000000000e+03	1.905016e+00	1.133490e-03
1.690662000000000e+03	1.905457e+00	1.127048e-03
1.700660000000000e+03	1.905894e+00	1.120679e-03
1.710658000000000e+03	1.906326e+00	1.114382e-03
1.720656000000000e+03	1.906753e+00	1.108155e-03
1.730654000000000e+03	1.907176e+00	1.101997e-03
1.740652000000000e+03	1.907593e+00	1.095907e-03
1.750650000000000e+03	1.908006e+00	1.089884e-03
1.760648000000000e+03	1.908415e+00	1.083927e-03
1.770646000000000e+03	1.908819e+00	1.078035e-03
1.780644000000000e+03	1.909219e+00	1.072207e-03
1.790642000000000e+03	1.909614e+00	1.066441e-03
1.800640000000000e+03	1.910005e+00	1.060737e-03
1.810638000000000e+03	1.910392e+00	1.055093e-03
1.820636000000000e+03	1.910775e+00	1.049510e-03
1.830634000000000e+03	1.911154e+00	1.043985e-03
1.840632000000000e+03	1.911529e+00	1.038518e-03
1.850630000000000e+03	1.911900e+00	1.033108e-03
1.860628000000000e+03	1.912267e+00	1.027754e-03
1.870626000000000e+03	1.912631e+00	1.022455e-03
1.880624000000000e+03	1.912990e+00	1.017211e-03
1.890622000000000e+03	1.913347e+00	1.012020e-03
1.900620000000000e+03	1.913699e+00	1.006881e-03
1.910618000000000e+03	1.914048e+00	1.001795e-03
1.920616000000000e+03	1.914393e+00	9.967600e-04
1.930614000000000e+03	1.914735e+00	9.917751e-04
1.940612000000000e+03	1.915073e+00	9.868400e-04
1.950610000000000e+03	1.915408e+00	9.819536e-04
1.960608000000000e+03	1.915740e+00	9.771155e-04
1.970606000000000e+03	1.916069e+00	9.723247e-04
1.980604000000000e+03	1.916394e+00	9.675808e-04
1.990602000000000e+03	1.916716e+00	9.628828e-04
2.000600000000000e+03	1.917036e+00	9.582303e-04
2.010598000000000e+03	1.917352e+00	9.536226e-04
2.020596000000000e+03	1.917665e+00	9.490589e-04
2.030594000000000e+03	1.917975e+00	9.445387e-04
2.040592000000000e+03	1.918282e+00	9.400613e-04
2.050590000000000e+03	1.918586e+00	9.356263e-04
2.060588000000000e+03	1.918887e+00	9.312328e-04
2.070586000000000e+03	1.919186e+00	9.268805e-04
2.080584000000000e+03	1.919481e+00	9.225685e-04
2.090582000000000e+03	1.919774e+00	9.182966e-04
2.100580000000000e+03	1.920065e+00	9.140641e-04
2.110578000000000e+03	1.920352e+00	9.098703e-04
2.120576000000000e+03	1.920637e+00	9.057149e-04
2.130574000000000e+03	1.920920e+00	9.015973e-04
2.140572000000000e+03	1.921200e+00	8.975169e-04
2.150570000000000e+03	1.921477e+00	8.934733e-04
2.160568000000000e+03	1.921752e+00	8.894660e-04
2.170566000000000e+03	1.922024e+00	8.854944e-04
2.180564000000000e+03	1.922294e+00	8.815582e-04
2.190562000000000e+03	1.922562e+00	8.776568e-04
2.200560000000000e+03	1.922827e+00	8.737898e-04
2.210558000000000e+03	1.923090e+00	8.699567e-04
2.220556000000000e+03	1.923350e+00	8.661571e-04
2.230554000000000e+03	1.923609e+00	8.623906e-04
2.240552000000000e+03	1.923865e+00	8.586566e-04
2.250550000000000e+03	1.924119e+00	8.549548e-04
2.260548000000000e+03	1.924370e+00	8.512849e-04
2.270546000000000e+03	1.924620e+00	8.476463e-04
2.280544000000000e+03	1.924867e+00	8.440387e-04
2.290542000000000e+03	1.925113e+00	8.404616e-04
2.300540000000000e+03	1.925356e+00	8.369148e-04
2.310538000000000e+03	1.925597e+00	8.333977e-04
2.320536000000000e+03	1.925836e+00	8.299101e-04
2.330534000000000e+03	1.926074e+00	8.264516e-04
2.340532000000000e+03	1.926309e+00	8.230217e-04
2.350530000000000e+03	1.926542e+00	8.196203e-04
2.360528000000000e+03	1.926773e+00	8.162468e-04
2.370526000000000e+03	1.927003e+00	8.129010e-04
2.380524000000000e+03	1.927230e+00	8.095825e-04
2.390522000000000e+03	1.927456e+00	8.062909e-04
2.400520000000000e+03	1.927680e+00	8.030261e-04
2.410518000000000e+03	1.927902e+00	7.997875e-04
2.420516000000000e+03	1.928123e+00	7.965750e-04
2.430514000000000e+03	1.928341e+00	7.933882e-04
2.440512000000000e+03	1.928558e+00	7.902268e-04
2.450510000000000e+03	1.928773e+00	7.870905e-04
2.460508000000000e+03	1.928986e+00	7.839789e-04
2.470506000000000e+03	1.929198e+00	7.808919e-04
2.480504000000000e+03	1.929408e+00	7.778291e-04
2.490502000000000e+03	1.929617e+00	7.747902e-04
2.500500000000000e+03	1.929823e+00	7.717750e-04
2.510498000000000e+03	1.930029e+00	7.687832e-04
2.520496000000000e+03	1.930232e+00	7.658144e-04
2.530494000000000e+03	1.930434e+00	7.628686e-04
2.540492000000000e+03	1.930635e+00	7.599453e-04
2.550490000000000e+03	1.930834e+00	7.570442e-04
2.560488000000000e+03	1.931031e+00	7.541653e-04
2.570486000000000e+03	1.931227e+00	7.513082e-04
2.580484000000000e+03	1.931422e+00	7.484726e-04
2.590482000000000e+03	1.931615e+00	7.456584e-04
2.600480000000000e+03	1.931806e+00	7.428652e-04
2.610478000000000e+03	1.931996e+00	7.400929e-04
2.620476000000000e+03	1.932185e+00	7.373412e-04
2.630474000000000e+03	1.932372e+00	7.346100e-04
2.640472000000000e+03	1.932558e+00	7.318988e-04
2.650470000000000e+03	1.932743e+00	7.292076e-04
2.660468000000000e+03	1.932926e+00	7.265361e-04
2.670466000000000e+03	1.933108e+00	7.238841e-04
2.680464000000000e+03	1.933289e+00	7.212514e-04
2.690462000000000e+03	1.933468e+00	7.186378e-04
2.700460000000000e+03	1.933646e+00	7.160431e-04
2.710458000000000e+03	1.933822e+00	7.134670e-04
2.720456000000000e+03	1.933998e+00	7.109094e-04
2.730454000000000e+03	1.934172e+00	7.083701e-04
2.740452000000000e+03	1.934345e+00	7.058489e-04
2.750450000000000e+03	1.934517e+00	7.033455e-04
2.760448000000000e+03	1.934687e+00	7.008598e-04
2.770446000000000e+03	1.934856e+00	6.983916e-04
2.780444000000000e+03	1.935024e+00	6.959408e-04
2.790442000000000e+03	1.935191e+00	6.935071e-04
2.800440000000000e+03	1.935357e+00	6.910904e-04
2.810438000000000e+03	1.935522e+00	6.886904e-04
2.820436000000000e+03	1.935685e+00	6.863071e-04
2.830434000000000e+03	1.935848e+00	6.839402e-04
2.840432000000000e+03	1.936009e+00	6.815895e-04
2.850430000000000e+03	1.936169e+00	6.792550e-04
2.860428000000000e+03	1.936328e+00	6.769364e-04
2.870426000000000e+03	1.936486e+00	6.746336e-04
2.880424000000000e+03	1.936643e+00	6.723464e-04
2.890422000000000e+03	1.936798e+00	6.700746e-04
2.900420000000000e+03	1.936953e+00	6.678182e-04
2.910418000000000e+03	1.937107e+00	6.655769e-04
2.920416000000000e+03	1.937260e+00	6.633506e-04
2.930414000000000e+03	1.937411e+00	6.611391e-04
2.940412000000000e+03	1.937562e+00	6.589423e-04
2.950410000000000e+03	1.937712e+00	6.567601e-04
2.960408000000000e+03	1.937860e+00	6.545923e-04
2.970406000000000e+03	1.938008e+00	6.524387e-04
2.980404000000000e+03	1.938155e+00	6.502993e-04
2.990402000000000e+03	1.938300e+00	6.481739e-04
3.000400000000000e+03	1.938445e+00	6.460623e-04
3.010398000000000e+03	1.938589e+00	6.439644e-04
3.020396000000000e+03	1.938732e+00	6.418801e-04
3.030394000000000e+03	1.938874e+00	6.398092e-04
3.040392000000000e+03	1.939015e+00	6.377517e-04
3.050390000000000e+03	1.939155e+00	6.357074e-04
3.060388000000000e+03	1.939295e+00	6.336761e-04
3.070386000000000e+03	1.939433e+00	6.316578e-04
3.080384000000000e+03	1.939571e+00	6.296523e-04
3.090382000000000e+03	1.939707e+00	6.276594e-04
3.100380000000000e+03	1.939843e+00	6.256792e-04
3.110378000000000e+03	1.939978e+00	6.237114e-04
3.120376000000000e+03	1.940112e+00	6.217560e-04
3.130374000000000e+03	1.940246e+00	6.198127e-04
3.140372000000000e+03	1.940378e+00	6.178816e-04
3.150370000000000e+03	1.940510e+00	6.159625e-04
3.160368000000000e+03	1.940640e+00	6.140552e-04
3.170366000000000e+03	1.940771e+00	6.121597e-04
3.180364000000000e+03	1.940900e+00	6.102760e-04
3.190362000000000e+03	1.941028e+00	6.084037e-04
3.200360000000000e+03	1.941156e+00	6.065429e-04
3.210358000000000e+03	1.941283e+00	6.046935e-04
3.220356000000000e+03	1.941409e+00	6.028553e-04
3.230354000000000e+03	1.941534e+00	6.010282e-04
3.240352000000000e+03	1.941658e+00	5.992122e-04
3.250350000000000e+03	1.941782e+00	5.974071e-04
3.260348000000000e+03	1.941905e+00	5.956129e-04
3.270346000000000e+03	1.942028e+00	5.938294e-04
3.280344000000000e+03	1.942149e+00	5.920565e-04
3.290342000000000e+03	1.942270e+00	5.902943e-04
3.300340000000000e+03	1.942390e+00	5.885425e-04
3.310338000000000e+03	1.942510e+00	5.868010e-04
3.320336000000000e+03	1.942628e+00	5.850698e-04
3.330334000000000e+03	1.942746e+00	5.833489e-04
3.340332000000000e+03	1.942864e+00	5.816379e-04
3.350330000000000e+03	1.942980e+00	5.799370e-04
3.360328000000000e+03	1.943096e+00	5.782461e-04
3.370326000000000e+03	1.943212e+00	5.765649e-04
3.380324000000000e+03	1.943326e+00	5.748935e-04
3.390322000000000e+03	1.943440e+00	5.732318e-04
3.400320000000000e+03	1.943554e+00	5.715796e-04
3.410318000000000e+03	1.943666e+00	5.699369e-04
3.420316000000000e+03	1.943778e+00	5.683037e-04
3.430314000000000e+03	1.943890e+00	5.666798e-04
3.440312000000000e+03	1.944000e+00	5.650651e-04
3.450310000000000e+03	1.944111e+00	5.634596e-04
3.460308000000000e+03	1.944220e+00	5.618633e-04
3.470306000000000e+03	1.944329e+00	5.602759e-04
3.480304000000000e+03	1.944437e+00	5.586975e-04
3.490302000000000e+03	1.944545e+00	5.571279e-04
3.500300000000000e+03	1.944652e+00	5.555672e-04
3.510298000000000e+03	1.944758e+00	5.540152e-04
3.520296000000000e+03	1.944864e+00	5.524717e-04
3.530294000000000e+03	1.944969e+00	5.509370e-04
3.540292000000000e+03	1.945074e+00	5.494106e-04
3.550290000000000e+03	1.945178e+00	5.478928e-04
3.560288000000000e+03	1.945282e+00	5.463833e-04
3.570286000000000e+03	1.945385e+00	5.448820e-04
3.580284000000000e+03	1.945487e+00	5.433890e-04
3.590282000000000e+03	1.945589e+00	5.419042e-04
3.600280000000000e+03	1.945690e+00	5.404275e-04
3.610278000000000e+03	1.945791e+00	5.389588e-04
3.620276000000000e+03	1.945891e+00	5.374980e-04
3.630274000000000e+03	1.945991e+00	5.360451e-04
3.640272000000000e+03	1.946090e+00	5.346001e-04
3.650270000000000e+03	1.946188e+00	5.331628e-04
3.660268000000000e+03	1.946286e+00	5.317333e-04
3.670266000000000e+03	1.946384e+00	5.303114e-04
3.680264000000000e+03	1.946481e+00	5.288971e-04
3.690262000000000e+03	1.946577e+00	5.274903e-04
3.700260000000000e+03	1.946673e+00	5.260910e-04
3.710258000000000e+03	1.946769e+00	5.246990e-04
3.720256000000000e+03	1.946864e+00	5.233145e-04
3.730254000000000e+03	1.946958e+00	5.219372e-04
3.740252000000000e+03	1.947052e+00	5.205671e-04
3.750250000000000e+03	1.947146e+00	5.192042e-04
3.760248000000000e+03	1.947239e+00	5.178485e-04
3.770246000000000e+03	1.947331e+00	5.164998e-04
3.780244000000000e+03	1.947423e+00	5.151581e-04
3.790242000000000e+03	1.947515e+00	5.138234e-04
3.800240000000000e+03	1.947606e+00	5.124955e-04
3.810238000000000e+03	1.947696e+00	5.111745e-04
3.820236000000000e+03	1.947787e+00	5.098603e-04
3.830234000000000e+03	1.947876e+00	5.085528e-04
3.840232000000000e+03	1.947966e+00	5.072520e-04
3.850230000000000e+03	1.948054e+00	5.059579e-04
3.860228000000000e+03	1.948143e+00	5.046703e-04
3.870226000000000e+03	1.948230e+00	5.033893e-04
3.880224000000000e+03	1.948318e+00	5.021148e-04
3.890222000000000e+03	1.948405e+00	5.008467e-04
3.900220000000000e+03	1.948491e+00	4.995849e-04
3.910218000000000e+03	1.948577e+00	4.983296e-04
3.920216000000000e+03	1.948663e+00	4.970806e-04
3.930214000000000e+03	1.948748e+00	4.958377e-04
3.940212000000000e+03	1.948833e+00	4.946011e-04
3.950210000000000e+03	1.948918e+00	4.933706e-04
3.960208000000000e+03	1.949001e+00	4.921462e-04
3.970206000000000e+03	1.949085e+00	4.909280e-04
3.980204000000000e+03	1.949168e+00	4.897157e-04
3.990202000000000e+03	1.949251e+00	4.885093e-04
4.000200000000000e+03	1.949333e+00	4.873089e-04
4.010198000000000e+03	1.949415e+00	4.861144e-04
4.020196000000000e+03	1.949497e+00	4.849258e-04
4.030194000000000e+03	1.949578e+00	4.837429e-04
4.040192000000000e+03	1.949659e+00	4.825658e-04
4.050190000000000e+03	1.949739e+00	4.813944e-04
4.060188000000000e+03	1.949819e+00	4.802287e-04
