time	V(in)	V(out)
0.000000000000000e+00	0.000000e+00	-3.340128e-06
4.464285766455793e-10	4.464286e-07	-3.230950e-06
8.928571532911587e-10	8.928572e-07	-3.115927e-06
1.339285729936738e-09	1.339286e-06	-2.995059e-06
1.785714306582317e-09	1.785714e-06	-2.868345e-06
2.232142883227897e-09	2.232143e-06	-2.735785e-06
2.678571459873476e-09	2.678572e-06	-2.597380e-06
3.125000036519054e-09	3.125000e-06	-2.453130e-06
1.267676681040421e-08	1.267677e-05	-3.182483e-07
2.222853358428936e-08	2.222853e-05	1.644382e-06
3.178030035817451e-08	3.178030e-05	3.434761e-06
4.133206713205966e-08	4.133207e-05	5.052889e-06
5.088383390594481e-08	5.088383e-05	6.498765e-06
6.043560067982996e-08	6.043560e-05	7.772389e-06
6.998736745371509e-08	6.998737e-05	8.873762e-06
9.477126432223510e-08	9.477126e-05	9.514019e-06
1.228470940218415e-07	1.228471e-04	6.236512e-06
1.599764629729578e-07	1.599765e-04	-6.064407e-06
2.342352008751905e-07	2.342352e-04	-5.038352e-05
3.069936318385280e-07	3.069936e-04	-1.214933e-04
4.525104937652030e-07	4.525105e-04	-3.378460e-04
6.523130256952988e-07	6.523130e-04	-7.619750e-04
9.932614253993250e-07	9.932615e-04	-1.740270e-03
1.478183096038334e-06	1.478183e-03	-3.478883e-03
2.114688205256686e-06	2.114688e-03	-6.131107e-03
2.838938740226165e-06	2.838939e-03	-9.429748e-03
3.835497372503468e-06	3.835497e-03	-1.418595e-02
7.009265421246092e-06	7.009265e-03	-2.976862e-02
1.433348417124609e-05	1.433348e-02	-6.617814e-02
1.921629667124609e-05	1.921630e-02	-9.056073e-02
2.409910917124609e-05	2.409911e-02	-1.149700e-01
2.654051542124609e-05	2.654052e-02	-1.271783e-01
2.898192167124609e-05	2.898192e-02	-1.393870e-01
3.142332792124609e-05	3.142333e-02	-1.515950e-01
3.386473417124610e-05	3.386473e-02	-1.638016e-01
3.630614042124609e-05	3.630614e-02	-1.760055e-01
3.874754667124609e-05	3.874755e-02	-1.882056e-01
4.118895292124609e-05	4.118895e-02	-2.004005e-01
4.363035917124609e-05	4.363036e-02	-2.125883e-01
4.607176542124609e-05	4.607176e-02	-2.247669e-01
4.851317167124609e-05	4.851317e-02	-2.369331e-01
5.095457792124610e-05	5.095458e-02	-2.490831e-01
5.339598417124609e-05	5.339598e-02	-2.612121e-01
5.583739042124609e-05	5.583739e-02	-2.733136e-01
5.827879667124610e-05	5.827880e-02	-2.853794e-01
6.072020292124609e-05	6.072020e-02	-2.973991e-01
6.316160917124609e-05	6.316161e-02	-3.093594e-01
6.560301542124610e-05	6.560302e-02	-3.212436e-01
6.804442167124610e-05	6.804442e-02	-3.330311e-01
7.048582792124610e-05	7.048583e-02	-3.446963e-01
7.292723417124609e-05	7.292724e-02	-3.562090e-01
7.536864042124609e-05	7.536864e-02	-3.675334e-01
7.781004667124609e-05	7.781005e-02	-3.786288e-01
8.025145292124610e-05	8.025146e-02	-3.894507e-01
8.269285917124610e-05	8.269286e-02	-3.999524e-01
8.513426542124610e-05	8.513427e-02	-4.100875e-01
8.757567167124609e-05	8.757567e-02	-4.198131e-01
9.001707792124609e-05	9.001708e-02	-4.290929e-01
9.245848417124609e-05	9.245849e-02	-4.378999e-01
9.489989042124610e-05	9.489989e-02	-4.462183e-01
9.734129667124610e-05	9.734130e-02	-4.540435e-01
9.978270292124610e-05	9.978271e-02	-4.613820e-01
1.022241091712461e-04	1.022241e-01	-4.682490e-01
1.046655154212461e-04	1.046655e-01	-4.746665e-01
1.071069216712461e-04	1.071069e-01	-4.806612e-01
1.095483279212461e-04	1.095483e-01	-4.862620e-01
1.144311404212461e-04	1.144311e-01	-4.964011e-01
1.193139529212461e-04	1.193140e-01	-5.053125e-01
1.266381716712461e-04	1.266382e-01	-5.168129e-01
1.329160734569604e-04	1.329161e-01	-5.249049e-01
1.391939752426747e-04	1.391940e-01	-5.323439e-01
1.454718770283889e-04	1.454719e-01	-5.391299e-01
1.517497788141032e-04	1.517498e-01	-5.452630e-01
1.580276805998175e-04	1.580277e-01	-5.507430e-01
1.643055823855318e-04	1.643056e-01	-5.555702e-01
1.705834841712461e-04	1.705835e-01	-5.597443e-01
1.810466538141033e-04	1.810467e-01	-5.661691e-01
1.915098234569604e-04	1.915098e-01	-5.721140e-01
2.019729930998175e-04	2.019730e-01	-5.775792e-01
2.124361627426747e-04	2.124362e-01	-5.825645e-01
2.228993323855318e-04	2.228993e-01	-5.870701e-01
2.333625020283890e-04	2.333625e-01	-5.910959e-01
2.438256716712461e-04	2.438257e-01	-5.946419e-01
2.567302475641033e-04	2.567302e-01	-5.988148e-01
2.696348234569604e-04	2.696348e-01	-6.027495e-01
2.825393993498175e-04	2.825394e-01	-6.064459e-01
2.954439752426747e-04	2.954440e-01	-6.099041e-01
3.083485511355318e-04	3.083486e-01	-6.131239e-01
3.212531270283890e-04	3.212531e-01	-6.161055e-01
3.341577029212461e-04	3.341577e-01	-6.188488e-01
3.502012297069604e-04	3.502012e-01	-6.220969e-01
3.662447564926747e-04	3.662448e-01	-6.251907e-01
3.822882832783890e-04	3.822883e-01	-6.281303e-01
3.983318100641033e-04	3.983318e-01	-6.309155e-01
4.143753368498176e-04	4.143753e-01	-6.335465e-01
4.304188636355319e-04	4.304189e-01	-6.360231e-01
4.464623904212461e-04	4.464624e-01	-6.383455e-01
4.677375020283890e-04	4.677375e-01	-6.412819e-01
4.890126136355319e-04	4.890126e-01	-6.440909e-01
5.102877252426747e-04	5.102877e-01	-6.467726e-01
5.315628368498176e-04	5.315628e-01	-6.493269e-01
5.528379484569605e-04	5.528380e-01	-6.517538e-01
5.741130600641032e-04	5.741131e-01	-6.540534e-01
5.953881716712461e-04	5.953882e-01	-6.562256e-01
6.264289082783890e-04	6.264289e-01	-6.592437e-01
6.574696448855318e-04	6.574696e-01	-6.621317e-01
6.885103814926747e-04	6.885104e-01	-6.648894e-01
7.195511180998176e-04	7.195511e-01	-6.675170e-01
7.505918547069605e-04	7.505919e-01	-6.700144e-01
7.816325913141034e-04	7.816326e-01	-6.723815e-01
8.126733279212461e-04	8.126733e-01	-6.746185e-01
8.419702029212461e-04	8.419702e-01	-6.766659e-01
8.712670779212462e-04	8.712671e-01	-6.786497e-01
9.005639529212462e-04	9.005640e-01	-6.805701e-01
9.298608279212462e-04	9.298608e-01	-6.824269e-01
9.591577029212463e-04	9.591577e-01	-6.842201e-01
9.884545779212462e-04	9.884546e-01	-6.859499e-01
1.017751452921246e-03	1.017751e+00	-6.876162e-01
1.042514287742675e-03	1.042514e+00	-6.888883e-01
1.067277122564103e-03	1.067277e+00	-6.900458e-01
1.092039957385532e-03	1.092040e+00	-6.910888e-01
1.116802792206960e-03	1.116803e+00	-6.920172e-01
1.141565627028389e-03	1.141566e+00	-6.928311e-01
1.166328461849818e-03	1.166328e+00	-6.935304e-01
1.191091296671246e-03	1.191091e+00	-6.941152e-01
1.232246430599818e-03	1.232246e+00	-6.948662e-01
1.273401564528389e-03	1.273402e+00	-6.953973e-01
1.314556698456960e-03	1.314557e+00	-6.957086e-01
1.355711832385532e-03	1.355712e+00	-6.957999e-01
1.396866966314103e-03	1.396867e+00	-6.956713e-01
1.438022100242675e-03	1.438022e+00	-6.953227e-01
1.479177234171246e-03	1.479177e+00	-6.947543e-01
1.538119756492675e-03	1.538120e+00	-6.936794e-01
1.597062278814103e-03	1.597062e+00	-6.921931e-01
1.656004801135532e-03	1.656005e+00	-6.902953e-01
1.714947323456961e-03	1.714947e+00	-6.879862e-01
1.773889845778389e-03	1.773890e+00	-6.852656e-01
1.832832368099818e-03	1.832832e+00	-6.821337e-01
1.891774890421246e-03	1.891775e+00	-6.785903e-01
1.931534935064103e-03	1.931535e+00	-6.759721e-01
1.971294979706961e-03	1.971295e+00	-6.729761e-01
2.011055024349818e-03	2.011055e+00	-6.696024e-01
2.050815068992675e-03	2.050815e+00	-6.658509e-01
2.090575113635532e-03	2.090575e+00	-6.617217e-01
2.130335158278389e-03	2.130335e+00	-6.572147e-01
2.170095202921246e-03	2.170095e+00	-6.523300e-01
2.197648216314103e-03	2.197648e+00	-6.486706e-01
2.225201229706960e-03	2.225201e+00	-6.444862e-01
2.252754243099818e-03	2.252754e+00	-6.397769e-01
2.280307256492675e-03	2.280307e+00	-6.345427e-01
2.307860269885532e-03	2.307860e+00	-6.287836e-01
2.335413283278389e-03	2.335413e+00	-6.224995e-01
2.362966296671246e-03	2.362966e+00	-6.156905e-01
2.372383149349817e-03	2.372383e+00	-6.131011e-01
2.381800002028389e-03	2.381800e+00	-6.103748e-01
2.391216854706960e-03	2.391217e+00	-6.075116e-01
2.400633707385532e-03	2.400634e+00	-6.045115e-01
2.410050560064103e-03	2.410051e+00	-6.013746e-01
2.419467412742675e-03	2.419467e+00	-5.981007e-01
2.428884265421246e-03	2.428884e+00	-5.946900e-01
2.431325671671246e-03	2.431326e+00	-5.937723e-01
2.440742524349818e-03	2.440743e+00	-5.901500e-01
2.450159377028389e-03	2.450159e+00	-5.863149e-01
2.459576229706960e-03	2.459576e+00	-5.822670e-01
2.468993082385532e-03	2.468993e+00	-5.780064e-01
2.478409935064103e-03	2.478410e+00	-5.735329e-01
2.487826787742675e-03	2.487827e+00	-5.688466e-01
2.497243640421246e-03	2.497244e+00	-5.639475e-01
2.499685046671246e-03	2.499685e+00	-5.626335e-01
2.500000000000000e-03	-nan	-nan
