time	V(in)	V(out)
0.000000000000000e+00	0.000000e+00	-3.340304e-06
4.464285766455793e-10	4.464286e-07	-3.310083e-06
8.928571532911587e-10	8.928572e-07	-3.266332e-06
1.339285729936738e-09	1.339286e-06	-3.209049e-06
1.785714306582317e-09	1.785714e-06	-3.138237e-06
2.232142883227897e-09	2.232143e-06	-3.053893e-06
2.678571459873476e-09	2.678572e-06	-2.956019e-06
3.125000036519054e-09	3.125000e-06	-2.844614e-06
1.643821548061949e-08	1.643821e-05	3.056953e-07
2.975143092471992e-08	2.975143e-05	2.979782e-06
4.306464636882035e-08	4.306465e-05	5.177645e-06
5.637786181292078e-08	5.637786e-05	6.899286e-06
6.969107725702122e-08	6.969108e-05	8.144703e-06
8.300429270112164e-08	8.300429e-05	8.913898e-06
9.631750814522204e-08	9.631751e-05	9.206870e-06
1.245271591007735e-07	1.245272e-04	5.265696e-06
1.631959670432638e-07	1.631960e-04	-9.085588e-06
2.405335829282445e-07	2.405336e-04	-5.987074e-05
3.153810865582252e-07	3.153811e-04	-1.394810e-04
4.650760938181865e-07	4.650761e-04	-3.805088e-04
6.807610206086706e-07	6.807610e-04	-8.686100e-04
1.009428351080440e-06	1.009428e-03	-1.860541e-03
1.517307364929632e-06	1.517307e-03	-3.748370e-03
2.118625366269278e-06	2.118625e-03	-6.310997e-03
2.858530696326899e-06	2.858531e-03	-9.729448e-03
3.813448136849868e-06	3.813448e-03	-1.432197e-02
9.434015385111423e-06	9.434015e-03	-4.209912e-02
1.919964038511142e-05	1.919964e-02	-9.088264e-02
2.896526538511143e-05	2.896526e-02	-1.396837e-01
3.873089038511144e-05	3.873089e-02	-1.885022e-01
4.849651538511144e-05	4.849651e-02	-2.373383e-01
5.826214038511144e-05	5.826214e-02	-2.861919e-01
6.802776538511145e-05	6.802776e-02	-3.350629e-01
7.779339038511142e-05	7.779339e-02	-3.839515e-01
8.686147074225428e-05	8.686147e-02	-4.293257e-01
9.592955109939715e-05	9.592955e-02	-4.746989e-01
1.049976314565400e-04	1.049976e-01	-5.200712e-01
1.140657118136829e-04	1.140657e-01	-5.654425e-01
1.231337921708257e-04	1.231338e-01	-6.108128e-01
1.322018725279686e-04	1.322019e-01	-6.561822e-01
1.412699528851114e-04	1.412700e-01	-7.015506e-01
1.510355778851114e-04	1.510356e-01	-7.504069e-01
1.608012028851114e-04	1.608012e-01	-7.992617e-01
1.705668278851114e-04	1.705668e-01	-8.481150e-01
1.803324528851114e-04	1.803325e-01	-8.969670e-01
1.900980778851114e-04	1.900981e-01	-9.458175e-01
1.998637028851114e-04	1.998637e-01	-9.946665e-01
2.096293278851114e-04	2.096293e-01	-1.043514e+00
2.211388144922543e-04	2.211388e-01	-1.101083e+00
2.326483010993971e-04	2.326483e-01	-1.158650e+00
2.441577877065400e-04	2.441578e-01	-1.216216e+00
2.556672743136829e-04	2.556673e-01	-1.273781e+00
2.671767609208257e-04	2.671768e-01	-1.331344e+00
2.786862475279686e-04	2.786862e-01	-1.388906e+00
2.901957341351114e-04	2.901957e-01	-1.446466e+00
3.041466269922543e-04	3.041466e-01	-1.516235e+00
3.180975198493971e-04	3.180975e-01	-1.586003e+00
3.320484127065400e-04	3.320484e-01	-1.655770e+00
3.459993055636829e-04	3.459993e-01	-1.725536e+00
3.599501984208257e-04	3.599502e-01	-1.795300e+00
3.739010912779686e-04	3.739011e-01	-1.865063e+00
3.878519841351114e-04	3.878520e-01	-1.934826e+00
4.052906002065400e-04	4.052906e-01	-2.022027e+00
4.227292162779686e-04	4.227292e-01	-2.109228e+00
4.401678323493972e-04	4.401678e-01	-2.196427e+00
4.576064484208257e-04	4.576065e-01	-2.283626e+00
4.750450644922543e-04	4.750451e-01	-2.370824e+00
4.924836805636829e-04	4.924837e-01	-2.458021e+00
5.099222966351114e-04	5.099223e-01	-2.545217e+00
5.336388144922544e-04	5.336388e-01	-2.663802e+00
5.573553323493972e-04	5.573554e-01	-2.782387e+00
5.810718502065400e-04	5.810719e-01	-2.900971e+00
6.047883680636829e-04	6.047884e-01	-3.019553e+00
6.285048859208258e-04	6.285049e-01	-3.138135e+00
6.522214037779687e-04	6.522214e-01	-3.256716e+00
6.759379216351115e-04	6.759380e-01	-3.375297e+00
7.115126984208258e-04	7.115127e-01	-3.553166e+00
7.470874752065400e-04	7.470875e-01	-3.731034e+00
7.826622519922544e-04	7.826623e-01	-3.908901e+00
8.182370287779687e-04	8.182371e-01	-4.086768e+00
8.538118055636829e-04	8.538118e-01	-4.264633e+00
8.893865823493973e-04	8.893866e-01	-4.442498e+00
9.249613591351115e-04	9.249614e-01	-4.620362e+00
9.423999752065400e-04	9.424000e-01	-4.707564e+00
9.598385912779686e-04	9.598386e-01	-4.794757e+00
9.772772073493971e-04	9.772772e-01	-4.881941e+00
9.947158234208256e-04	9.947158e-01	-4.969116e+00
1.012154439492254e-03	1.012154e+00	-5.056282e+00
1.029593055563683e-03	1.029593e+00	-5.143438e+00
1.047031671635111e-03	1.047032e+00	-5.230585e+00
1.073538368063683e-03	1.073538e+00	-5.362368e+00
1.100045064492254e-03	1.100045e+00	-5.493596e+00
1.126551760920826e-03	1.126552e+00	-5.624270e+00
1.153058457349397e-03	1.153058e+00	-5.754389e+00
1.179565153777969e-03	1.179565e+00	-5.883954e+00
1.206071850206540e-03	1.206072e+00	-6.012964e+00
1.232578546635112e-03	1.232579e+00	-6.141420e+00
1.278965265385112e-03	1.278965e+00	-6.365061e+00
1.325351984135112e-03	1.325352e+00	-6.587482e+00
1.371738702885112e-03	1.371739e+00	-6.808683e+00
1.418125421635112e-03	1.418125e+00	-7.028665e+00
1.464512140385112e-03	1.464512e+00	-7.247427e+00
1.510898859135112e-03	1.510899e+00	-7.464970e+00
1.557285577885112e-03	1.557286e+00	-7.681293e+00
1.612740376992254e-03	1.612740e+00	-7.938878e+00
1.668195176099397e-03	1.668195e+00	-8.194520e+00
1.723649975206540e-03	1.723650e+00	-8.448221e+00
1.779104774313683e-03	1.779105e+00	-8.699979e+00
1.834559573420826e-03	1.834560e+00	-8.949795e+00
1.890014372527969e-03	1.890014e+00	-9.197668e+00
1.945469171635112e-03	1.945469e+00	-9.443600e+00
1.983834126992254e-03	1.983834e+00	-9.612522e+00
2.022199082349397e-03	2.022199e+00	-9.779229e+00
2.060564037706540e-03	2.060564e+00	-9.943720e+00
2.098928993063683e-03	2.098929e+00	-1.010599e+01
2.137293948420826e-03	2.137294e+00	-1.026605e+01
2.175658903777969e-03	2.175659e+00	-1.042390e+01
2.214023859135111e-03	2.214024e+00	-1.057952e+01
2.240530555563683e-03	2.240531e+00	-1.068539e+01
2.267037251992254e-03	2.267037e+00	-1.078802e+01
2.293543948420826e-03	2.293544e+00	-1.088740e+01
2.320050644849397e-03	2.320051e+00	-1.098354e+01
2.346557341277969e-03	2.346557e+00	-1.107643e+01
2.373064037706540e-03	2.373064e+00	-1.116608e+01
2.399570734135111e-03	2.399571e+00	-1.125249e+01
2.431309015385112e-03	2.431309e+00	-1.134649e+01
2.440725868063683e-03	2.440726e+00	-1.137266e+01
2.450142720742254e-03	2.450143e+00	-1.139769e+01
2.459559573420826e-03	2.459560e+00	-1.142159e+01
2.468976426099397e-03	2.468976e+00	-1.144434e+01
2.478393278777969e-03	2.478393e+00	-1.146597e+01
2.487810131456540e-03	2.487810e+00	-1.148645e+01
2.497226984135111e-03	2.497227e+00	-1.150580e+01
2.499668390385111e-03	2.499668e+00	-1.151057e+01
2.500000000000000e-03	-nan	-nan
