time	V(vb)	V(vc)	V(ve)	V(vin)	V(vout)
0.000000000000000e+00	1.373059e+00	9.188957e+00	6.243721e-01	0.000000e+00	2.024327e-14
4.882812557061023e-11	1.373059e+00	9.188953e+00	6.243727e-01	3.067962e-07	-3.744347e-06
9.765625114122045e-11	1.373059e+00	9.188951e+00	6.243732e-01	6.135923e-07	-6.583796e-06
1.953125022824409e-10	1.373060e+00	9.188947e+00	6.243741e-01	1.227185e-06	-1.082227e-05
2.197265650677460e-10	1.373060e+00	9.188946e+00	6.243742e-01	1.380583e-06	-1.141051e-05
2.685546906383562e-10	1.373060e+00	9.188945e+00	6.243746e-01	1.687379e-06	-1.238538e-05
3.662109417795767e-10	1.373061e+00	9.188944e+00	6.243751e-01	2.300971e-06	-1.341819e-05
5.615234440620176e-10	1.373062e+00	9.188944e+00	6.243760e-01	3.528156e-06	-1.367651e-05
6.103515696326278e-10	1.373063e+00	9.188944e+00	6.243762e-01	3.834952e-06	-1.354493e-05
7.080078207738483e-10	1.373063e+00	9.188944e+00	6.243766e-01	4.448544e-06	-1.330185e-05
9.033203230562892e-10	1.373064e+00	9.188944e+00	6.243774e-01	5.675729e-06	-1.311896e-05
1.293945327621171e-09	1.373067e+00	9.188943e+00	6.243792e-01	8.130099e-06	-1.445817e-05
2.075195336750935e-09	1.373072e+00	9.188934e+00	6.243832e-01	1.303884e-05	-2.260849e-05
2.270507839033375e-09	1.373073e+00	9.188931e+00	6.243843e-01	1.426602e-05	-2.556982e-05
2.661132843598257e-09	1.373075e+00	9.188926e+00	6.243865e-01	1.672039e-05	-3.174724e-05
3.442382852728021e-09	1.373080e+00	9.188912e+00	6.243911e-01	2.162913e-05	-4.510756e-05
3.637695355010462e-09	1.373082e+00	9.188909e+00	6.243923e-01	2.285631e-05	-4.859551e-05
4.028320359575344e-09	1.373084e+00	9.188902e+00	6.243946e-01	2.531068e-05	-5.561450e-05
4.809570368705107e-09	1.373089e+00	9.188888e+00	6.243992e-01	3.021942e-05	-6.982137e-05
6.372070386964634e-09	1.373099e+00	9.188859e+00	6.244085e-01	4.003690e-05	-9.847760e-05
6.762695391529516e-09	1.373101e+00	9.188851e+00	6.244108e-01	4.249127e-05	-1.056623e-04
7.543945400659280e-09	1.373106e+00	9.188837e+00	6.244155e-01	4.740001e-05	-1.200296e-04
9.106445418918807e-09	1.373116e+00	9.188808e+00	6.244248e-01	5.721748e-05	-1.487649e-04
1.223144545543786e-08	1.373136e+00	9.188751e+00	6.244433e-01	7.685244e-05	-2.062384e-04
1.848144552847597e-08	1.373175e+00	9.188636e+00	6.244804e-01	1.161223e-04	-3.211833e-04
3.098144567455219e-08	1.373253e+00	9.188406e+00	6.245547e-01	1.946622e-04	-5.510744e-04
5.598144596670462e-08	1.373410e+00	9.187946e+00	6.247033e-01	3.517418e-04	-1.010856e-03
1.059814465510095e-07	1.373725e+00	9.187027e+00	6.250004e-01	6.659010e-04	-1.930421e-03
2.059814477196192e-07	1.374353e+00	9.185187e+00	6.255947e-01	1.294219e-03	-3.769557e-03
4.059814500568387e-07	1.375610e+00	9.181509e+00	6.267833e-01	2.550854e-03	-7.447849e-03
8.059814547312777e-07	1.378123e+00	9.174150e+00	6.291608e-01	5.064109e-03	-1.480449e-02
1.605981464080156e-06	1.383149e+00	9.159429e+00	6.339166e-01	1.009051e-02	-2.951779e-02
6.405981520173423e-06	1.413298e+00	9.071011e+00	6.624704e-01	4.023910e-02	-1.177757e-01
1.617160652017343e-05	1.474493e+00	8.890950e+00	7.205638e-01	1.014344e-01	-2.969167e-01
2.384459759160200e-05	1.522590e+00	8.748844e+00	7.663590e-01	1.495312e-01	-4.377286e-01
3.151758866303057e-05	1.570068e+00	8.608240e+00	8.116251e-01	1.970089e-01	-5.765685e-01
3.919057973445914e-05	1.616926e+00	8.469136e+00	8.563620e-01	2.438675e-01	-7.134363e-01
4.686357080588771e-05	1.663166e+00	8.331534e+00	9.005697e-01	2.901071e-01	-8.483321e-01
5.453656187731628e-05	1.708786e+00	8.195433e+00	9.442483e-01	3.357276e-01	-9.812559e-01
6.220955294874486e-05	1.753788e+00	8.060833e+00	9.873978e-01	3.807290e-01	-1.112208e+00
6.988254402017341e-05	1.798170e+00	7.927734e+00	1.030018e+00	4.251114e-01	-1.241187e+00
8.104325830588771e-05	1.861228e+00	7.738111e+00	1.090646e+00	4.881695e-01	-1.423944e+00
9.220397259160201e-05	1.921195e+00	7.557335e+00	1.148338e+00	5.481360e-01	-1.597072e+00
1.033646868773163e-04	1.978070e+00	7.385406e+00	1.203094e+00	6.050110e-01	-1.760569e+00
1.145254011630306e-04	2.031853e+00	7.222324e+00	1.254915e+00	6.587944e-01	-1.914437e+00
1.256861154487449e-04	2.082545e+00	7.068088e+00	1.303801e+00	7.094862e-01	-2.058675e+00
1.368468297344592e-04	2.130145e+00	6.922700e+00	1.349752e+00	7.570866e-01	-2.193283e+00
1.480075440201735e-04	2.174654e+00	6.786158e+00	1.392767e+00	8.015953e-01	-2.318261e+00
1.654461600916021e-04	2.236208e+00	6.596104e+00	1.452283e+00	8.631490e-01	-2.488603e+00
1.828847761630306e-04	2.286313e+00	6.440084e+00	1.500732e+00	9.132542e-01	-2.624377e+00
2.003233922344592e-04	2.324970e+00	6.318099e+00	1.538112e+00	9.519109e-01	-2.725583e+00
2.177620083058878e-04	2.352178e+00	6.230148e+00	1.564424e+00	9.791192e-01	-2.792222e+00
2.352006243773164e-04	2.367938e+00	6.176232e+00	1.579667e+00	9.948790e-01	-2.824293e+00
2.526392404487450e-04	2.372249e+00	6.156350e+00	1.583842e+00	9.991904e-01	-2.821796e+00
2.700778565201735e-04	2.365112e+00	6.170503e+00	1.576949e+00	9.920533e-01	-2.784732e+00
2.847262940201736e-04	2.348583e+00	6.214148e+00	1.560927e+00	9.755246e-01	-2.722382e+00
2.993747315201736e-04	2.324496e+00	6.280605e+00	1.537612e+00	9.514370e-01	-2.638081e+00
3.140231690201736e-04	2.292849e+00	6.369871e+00	1.507004e+00	9.197905e-01	-2.531828e+00
3.286716065201736e-04	2.253644e+00	6.481948e+00	1.469104e+00	8.805850e-01	-2.403623e+00
3.433200440201736e-04	2.206879e+00	6.616836e+00	1.423911e+00	8.338206e-01	-2.253468e+00
3.579684815201736e-04	2.152556e+00	6.774534e+00	1.371426e+00	7.794972e-01	-2.081360e+00
3.726169190201736e-04	2.090674e+00	6.955042e+00	1.311649e+00	7.176149e-01	-1.887301e+00
3.830800886630308e-04	2.042787e+00	7.095217e+00	1.265420e+00	6.697280e-01	-1.738431e+00
3.935432583058880e-04	1.992578e+00	7.242401e+00	1.217010e+00	6.195196e-01	-1.583351e+00
4.040064279487451e-04	1.940048e+00	7.396593e+00	1.166420e+00	5.669896e-01	-1.422061e+00
4.144695975916023e-04	1.885197e+00	7.557793e+00	1.113649e+00	5.121381e-01	-1.254562e+00
4.249327672344594e-04	1.828024e+00	7.726002e+00	1.058698e+00	4.549650e-01	-1.080852e+00
4.353959368773166e-04	1.768529e+00	7.901220e+00	1.001566e+00	3.954704e-01	-9.009331e-01
4.458591065201737e-04	1.706713e+00	8.083446e+00	9.422531e-01	3.336542e-01	-7.148041e-01
4.507419190201737e-04	1.677569e+00	8.169346e+00	9.143315e-01	3.045102e-01	-6.274126e-01
4.556247315201737e-04	1.648208e+00	8.255868e+00	8.862307e-01	2.751494e-01	-5.395971e-01
4.605075440201737e-04	1.618630e+00	8.343011e+00	8.579504e-01	2.455716e-01	-4.513574e-01
4.653903565201737e-04	1.588836e+00	8.430774e+00	8.294909e-01	2.157769e-01	-3.626936e-01
4.702731690201737e-04	1.558824e+00	8.519159e+00	8.008520e-01	1.857653e-01	-2.736056e-01
4.751559815201737e-04	1.528595e+00	8.608164e+00	7.720338e-01	1.555368e-01	-1.840935e-01
4.800387940201737e-04	1.498150e+00	8.697790e+00	7.430363e-01	1.250914e-01	-9.415731e-02
4.898044190201737e-04	1.437076e+00	8.877392e+00	6.849937e-01	6.401692e-02	8.546334e-02
4.946872315201737e-04	1.406434e+00	8.967403e+00	6.559367e-01	3.337491e-02	1.751860e-01
4.995700440201738e-04	1.375760e+00	9.057425e+00	6.268976e-01	2.701490e-03	2.647213e-01
5.044528565201738e-04	1.345084e+00	9.147362e+00	5.979080e-01	-2.797447e-02	3.539718e-01
5.093356690201738e-04	1.314435e+00	9.237111e+00	5.690001e-01	-5.862411e-02	4.428383e-01
5.191012940201738e-04	1.253330e+00	9.415645e+00	5.115600e-01	-1.197291e-01	6.190171e-01
5.288669190201738e-04	1.192675e+00	9.592196e+00	4.548441e-01	-1.803834e-01	7.924386e-01
5.386325440201738e-04	1.132700e+00	9.765900e+00	3.991297e-01	-2.403588e-01	9.622529e-01
5.532809815201738e-04	1.044503e+00	1.001910e+01	3.180823e-01	-3.285560e-01	1.208236e+00
5.630466065201738e-04	9.872046e-01	1.018153e+01	2.662060e-01	-3.858542e-01	1.364956e+00
5.728122315201738e-04	9.313586e-01	1.033749e+01	2.164886e-01	-4.417001e-01	1.514537e+00
5.825778565201738e-04	8.771752e-01	1.048556e+01	1.693897e-01	-4.958835e-01	1.655576e+00
5.874606690201738e-04	8.507709e-01	1.055607e+01	1.470025e-01	-5.222878e-01	1.722343e+00
5.923434815201738e-04	8.248581e-01	1.062385e+01	1.255133e-01	-5.482006e-01	1.786231e+00
5.972262940201738e-04	7.994613e-01	1.068852e+01	1.050413e-01	-5.735974e-01	1.846875e+00
6.021091065201738e-04	7.746044e-01	1.074962e+01	8.573668e-02	-5.984544e-01	1.903816e+00
6.069919190201738e-04	7.503107e-01	1.080654e+01	6.779306e-02	-6.227481e-01	1.956459e+00
6.118747315201739e-04	7.266031e-01	1.085850e+01	5.146195e-02	-6.464556e-01	2.004031e+00
6.167575440201739e-04	7.035039e-01	1.090451e+01	3.706345e-02	-6.695548e-01	2.045550e+00
6.216403565201739e-04	6.810349e-01	1.094330e+01	2.500214e-02	-6.920239e-01	2.079772e+00
6.265231690201739e-04	6.592172e-01	1.097396e+01	1.557467e-02	-7.138416e-01	2.105788e+00
6.314059815201739e-04	6.380713e-01	1.099601e+01	8.927101e-03	-7.349874e-01	2.123159e+00
6.362887940201739e-04	6.176172e-01	1.101038e+01	4.766030e-03	-7.554415e-01	2.132807e+00
6.411716065201739e-04	5.978740e-01	1.101909e+01	2.431256e-03	-7.751847e-01	2.136786e+00
6.460544190201739e-04	5.788605e-01	1.102431e+01	1.222167e-03	-7.941982e-01	2.137275e+00
6.509372315201739e-04	5.605944e-01	1.102767e+01	6.164460e-04	-8.124643e-01	2.135895e+00
6.558200440201739e-04	5.430930e-01	1.103008e+01	3.158254e-04	-8.299657e-01	2.133573e+00
6.607028565201739e-04	5.263727e-01	1.103202e+01	1.652696e-04	-8.466860e-01	2.130789e+00
6.655856690201739e-04	5.104493e-01	1.103373e+01	8.854333e-05	-8.626094e-01	2.127782e+00
6.704684815201739e-04	4.953378e-01	1.103533e+01	4.849556e-05	-8.777210e-01	2.124665e+00
6.753512940201739e-04	4.810523e-01	1.103686e+01	2.713589e-05	-8.920064e-01	2.121495e+00
6.802341065201739e-04	4.676064e-01	1.103837e+01	1.540504e-05	-9.054524e-01	2.118300e+00
6.851169190201739e-04	4.550126e-01	1.103985e+01	8.869131e-06	-9.180461e-01	2.115094e+00
6.899997315201739e-04	4.432828e-01	1.104133e+01	5.091229e-06	-9.297759e-01	2.111884e+00
6.948825440201739e-04	4.324282e-01	1.104280e+01	2.930253e-06	-9.406305e-01	2.108675e+00
6.997653565201739e-04	4.224588e-01	1.104426e+01	1.620431e-06	-9.505999e-01	2.105467e+00
7.046481690201739e-04	4.133841e-01	1.104572e+01	8.870636e-07	-9.596746e-01	2.102263e+00
7.095309815201739e-04	4.052126e-01	1.104717e+01	4.239146e-07	-9.678461e-01	2.099062e+00
7.144137940201739e-04	3.979520e-01	1.104862e+01	2.051872e-07	-9.751067e-01	2.095866e+00
7.192966065201739e-04	3.916092e-01	1.105008e+01	6.286557e-08	-9.814495e-01	2.092674e+00
7.290622315201740e-04	3.816997e-01	1.105297e+01	4.196910e-08	-9.913590e-01	2.086304e+00
7.388278565201740e-04	3.755215e-01	1.105585e+01	1.777518e-07	-9.975373e-01	2.079954e+00
7.485934815201740e-04	3.730978e-01	1.105873e+01	4.010863e-07	-9.999610e-01	2.073622e+00
7.583591065201740e-04	3.744377e-01	1.106159e+01	6.925470e-07	-9.986210e-01	2.067309e+00
7.681247315201740e-04	3.795362e-01	1.106445e+01	1.065021e-06	-9.935226e-01	2.061016e+00
7.778903565201740e-04	3.883741e-01	1.106730e+01	1.572785e-06	-9.846847e-01	2.054741e+00
7.827731690201740e-04	3.941854e-01	1.106872e+01	1.939341e-06	-9.788733e-01	2.051610e+00
7.876559815201740e-04	4.009181e-01	1.107013e+01	2.357816e-06	-9.721407e-01	2.048484e+00
7.925387940201740e-04	4.085656e-01	1.107155e+01	2.977112e-06	-9.644931e-01	2.045362e+00
7.974216065201740e-04	4.171210e-01	1.107296e+01	3.792662e-06	-9.559377e-01	2.042245e+00
8.023044190201740e-04	4.265760e-01	1.107437e+01	5.052460e-06	-9.464827e-01	2.039130e+00
8.071872315201740e-04	4.369219e-01	1.107577e+01	6.928867e-06	-9.361368e-01	2.036019e+00
8.120700440201740e-04	4.481488e-01	1.107717e+01	9.991627e-06	-9.249099e-01	2.032908e+00
8.169528565201740e-04	4.602461e-01	1.107856e+01	1.501276e-05	-9.128126e-01	2.029797e+00
8.218356690201740e-04	4.732026e-01	1.107994e+01	2.370331e-05	-8.998561e-01	2.026678e+00
8.267184815201740e-04	4.870060e-01	1.108130e+01	3.905722e-05	-8.860527e-01	2.023544e+00
8.316012940201740e-04	5.016434e-01	1.108261e+01	6.720187e-05	-8.714154e-01	2.020375e+00
8.364841065201741e-04	5.171008e-01	1.108384e+01	1.200834e-04	-8.559579e-01	2.017134e+00
8.413669190201741e-04	5.333639e-01	1.108492e+01	2.222625e-04	-8.396949e-01	2.013746e+00
8.462497315201741e-04	5.504172e-01	1.108569e+01	4.239699e-04	-8.226415e-01	2.010054e+00
8.511325440201741e-04	5.682449e-01	1.108582e+01	8.287466e-04	-8.048139e-01	2.005740e+00
8.560153565201741e-04	5.868299e-01	1.108468e+01	1.643726e-03	-7.862288e-01	2.000162e+00
8.608981690201741e-04	6.061549e-01	1.108108e+01	3.254112e-03	-7.669038e-01	1.992130e+00
8.657809815201741e-04	6.262017e-01	1.107311e+01	6.268995e-03	-7.468570e-01	1.979762e+00
8.706637940201741e-04	6.469515e-01	1.105851e+01	1.142194e-02	-7.261072e-01	1.960794e+00
8.755466065201741e-04	6.683846e-01	1.103564e+01	1.924004e-02	-7.046741e-01	1.933605e+00
8.804294190201741e-04	6.904809e-01	1.100416e+01	2.982753e-02	-6.825778e-01	1.897884e+00
8.853122315201741e-04	7.132197e-01	1.096498e+01	4.289372e-02	-6.598390e-01	1.854545e+00
8.901950440201741e-04	7.365795e-01	1.091896e+01	5.815816e-02	-6.364793e-01	1.804468e+00
8.950778565201741e-04	7.605383e-01	1.086734e+01	7.521826e-02	-6.125205e-01	1.748911e+00
8.999606690201741e-04	7.850736e-01	1.081105e+01	9.377237e-02	-5.879852e-01	1.688815e+00
9.048434815201741e-04	8.101622e-01	1.075079e+01	1.135967e-01	-5.628965e-01	1.624880e+00
9.097262940201741e-04	8.357807e-01	1.068709e+01	1.345189e-01	-5.372781e-01	1.557647e+00
9.146091065201741e-04	8.619048e-01	1.062035e+01	1.564036e-01	-5.111539e-01	1.487540e+00
9.194919190201741e-04	8.885100e-01	1.055093e+01	1.791428e-01	-4.845487e-01	1.414897e+00
9.292575440201741e-04	9.430631e-01	1.040505e+01	2.268430e-01	-4.299957e-01	1.263079e+00
9.390231690201741e-04	9.992346e-01	1.025119e+01	2.770544e-01	-3.738242e-01	1.103970e+00
9.536716065201742e-04	1.086062e+00	1.000832e+01	3.561423e-01	-2.869964e-01	8.545871e-01
9.683200440201742e-04	1.175320e+00	9.754205e+00	4.387036e-01	-1.977392e-01	5.956468e-01
9.780856690201742e-04	1.235802e+00	9.580129e+00	4.951609e-01	-1.372571e-01	4.193200e-01
9.878512940201740e-04	1.296800e+00	9.403338e+00	5.524209e-01	-7.625847e-02	2.410663e-01
9.927341065201739e-04	1.327422e+00	9.314188e+00	5.812674e-01	-4.563710e-02	1.514804e-01
9.976169190201738e-04	1.358086e+00	9.224669e+00	6.102142e-01	-1.497278e-02	6.172504e-02
1.002499731520174e-03	1.388764e+00	9.134882e+00	6.392289e-01	1.570563e-02	-2.809912e-02
1.007382544020174e-03	1.419428e+00	9.044926e+00	6.682798e-01	4.636926e-02	-1.178935e-01
1.017148169020173e-03	1.480595e+00	8.864897e+00	7.263638e-01	1.075368e-01	-2.970031e-01
1.024821160091602e-03	1.528654e+00	8.722871e+00	7.721336e-01	1.555951e-01	-4.377345e-01
1.032494151163030e-03	1.576079e+00	8.582390e+00	8.173600e-01	2.030207e-01	-5.764504e-01
1.040167142234459e-03	1.622872e+00	8.443455e+00	8.620431e-01	2.498135e-01	-7.131508e-01
1.047840133305887e-03	1.669032e+00	8.306065e+00	9.061828e-01	2.959736e-01	-8.478358e-01
1.055513124377315e-03	1.714560e+00	8.170221e+00	9.497792e-01	3.415009e-01	-9.805054e-01
1.063186115448744e-03	1.759454e+00	8.035922e+00	9.928322e-01	3.863954e-01	-1.111160e+00
1.070859106520172e-03	1.803716e+00	7.903168e+00	1.035342e+00	4.306573e-01	-1.239798e+00
1.082019820805886e-03	1.866573e+00	7.714127e+00	1.095783e+00	4.935145e-01	-1.421981e+00
1.093180535091600e-03	1.926316e+00	7.534006e+00	1.153265e+00	5.532570e-01	-1.594465e+00
1.104341249377314e-03	1.982944e+00	7.362804e+00	1.207788e+00	6.098848e-01	-1.757250e+00
1.115501963663028e-03	2.036457e+00	7.200523e+00	1.259353e+00	6.633978e-01	-1.910336e+00
1.126662677948743e-03	2.086855e+00	7.047162e+00	1.307958e+00	7.137962e-01	-2.053723e+00
1.137823392234457e-03	2.134138e+00	6.902720e+00	1.353605e+00	7.610798e-01	-2.187412e+00
1.148984106520171e-03	2.178307e+00	6.767199e+00	1.396294e+00	8.052487e-01	-2.311401e+00
1.167120267234456e-03	2.241543e+00	6.571858e+00	1.457440e+00	8.684839e-01	-2.486216e+00
1.185256427948741e-03	2.292342e+00	6.413509e+00	1.506562e+00	9.192837e-01	-2.623522e+00
1.203392588663026e-03	2.330707e+00	6.292151e+00	1.543660e+00	9.576480e-01	-2.723317e+00
1.221528749377312e-03	2.356636e+00	6.207784e+00	1.568735e+00	9.835767e-01	-2.785603e+00
1.239664910091597e-03	2.370129e+00	6.160408e+00	1.581785e+00	9.970700e-01	-2.810378e+00
1.257801070805882e-03	2.371186e+00	6.150024e+00	1.582811e+00	9.981277e-01	-2.797644e+00
1.275937231520168e-03	2.359809e+00	6.176631e+00	1.571813e+00	9.867500e-01	-2.747399e+00
1.289888124377310e-03	2.341119e+00	6.227102e+00	1.553701e+00	9.680599e-01	-2.679407e+00
1.303839017234453e-03	2.315638e+00	6.298071e+00	1.529040e+00	9.425797e-01	-2.591729e+00
1.317789910091596e-03	2.283368e+00	6.389536e+00	1.497831e+00	9.103095e-01	-2.484364e+00
1.331740802948738e-03	2.244308e+00	6.501498e+00	1.460074e+00	8.712492e-01	-2.357312e+00
1.345691695805881e-03	2.198458e+00	6.633956e+00	1.415768e+00	8.253989e-01	-2.210574e+00
1.359642588663023e-03	2.145817e+00	6.786911e+00	1.364913e+00	7.727585e-01	-2.044149e+00
1.373593481520166e-03	2.086387e+00	6.960363e+00	1.307509e+00	7.133281e-01	-1.858037e+00
1.384056651163023e-03	2.038218e+00	7.101416e+00	1.261011e+00	6.651596e-01	-1.708431e+00
1.394519820805880e-03	1.987751e+00	7.249408e+00	1.212355e+00	6.146919e-01	-1.552687e+00
1.404982990448736e-03	1.934984e+00	7.404340e+00	1.161541e+00	5.619248e-01	-1.390804e+00
1.415446160091594e-03	1.879917e+00	7.566211e+00	1.108568e+00	5.068585e-01	-1.222782e+00
1.425909329734450e-03	1.822551e+00	7.735022e+00	1.053438e+00	4.494928e-01	-1.048622e+00
1.436372499377307e-03	1.762887e+00	7.910773e+00	9.961494e-01	3.898279e-01	-8.683226e-01
1.446835669020164e-03	1.700922e+00	8.093464e+00	9.367029e-01	3.278637e-01	-6.818849e-01
1.451718481520164e-03	1.671719e+00	8.179552e+00	9.087285e-01	2.986601e-01	-5.943797e-01
1.456601294020164e-03	1.642304e+00	8.266243e+00	8.805807e-01	2.692452e-01	-5.064686e-01
1.461484106520164e-03	1.612678e+00	8.353537e+00	8.522594e-01	2.396190e-01	-4.181515e-01
1.466366919020164e-03	1.582840e+00	8.441433e+00	8.237647e-01	2.097815e-01	-3.294285e-01
1.471249731520164e-03	1.552791e+00	8.529932e+00	7.950965e-01	1.797327e-01	-2.402996e-01
1.476132544020164e-03	1.522531e+00	8.619034e+00	7.662548e-01	1.494727e-01	-1.507647e-01
1.481015356520163e-03	1.492060e+00	8.708738e+00	7.372397e-01	1.190014e-01	-6.082395e-02
1.490780981520163e-03	1.430951e+00	8.888439e+00	6.791806e-01	5.789242e-02	1.187480e-01
1.495663794020163e-03	1.400301e+00	8.978471e+00	6.501247e-01	2.724181e-02	2.084175e-01
1.500546606520163e-03	1.369624e+00	9.068495e+00	6.210929e-01	-3.434423e-03	2.978803e-01
1.505429419020163e-03	1.338951e+00	9.158412e+00	5.921170e-01	-3.410743e-02	3.870385e-01
1.510312231520163e-03	1.308310e+00	9.248123e+00	5.632294e-01	-6.474833e-02	4.757929e-01
1.520077856520163e-03	1.247240e+00	9.426517e+00	5.058496e-01	-1.258186e-01	6.516867e-01
1.529843481520162e-03	1.186643e+00	9.602842e+00	4.492212e-01	-1.864152e-01	8.247400e-01
1.544491919020162e-03	1.097135e+00	9.861545e+00	3.663012e-01	-2.759241e-01	1.077114e+00
1.559140356520162e-03	1.009961e+00	1.011046e+01	2.867184e-01	-3.630972e-01	1.318061e+00
1.568905981520162e-03	9.535092e-01	1.026919e+01	2.360879e-01	-4.195496e-01	1.470603e+00
1.578671606520161e-03	8.986359e-01	1.042063e+01	1.878793e-01	-4.744228e-01	1.615203e+00
1.583554419020161e-03	8.718562e-01	1.049312e+01	1.648439e-01	-5.012025e-01	1.684035e+00
1.588437231520161e-03	8.455482e-01	1.056312e+01	1.426280e-01	-5.275105e-01	1.750229e+00
1.593320044020161e-03	8.197367e-01	1.063031e+01	1.213320e-01	-5.533220e-01	1.813477e+00
1.598202856520161e-03	7.944460e-01	1.069432e+01	1.010802e-01	-5.786127e-01	1.873398e+00
1.603085669020161e-03	7.696998e-01	1.075465e+01	8.203074e-02	-6.033589e-01	1.929509e+00
1.607968481520161e-03	7.455215e-01	1.081065e+01	6.438749e-02	-6.275372e-01	1.981184e+00
1.612851294020161e-03	7.219338e-01	1.086152e+01	4.841516e-02	-6.511249e-01	2.027608e+00
1.617734106520161e-03	6.989590e-01	1.090621e+01	3.444744e-02	-6.740997e-01	2.067758e+00
1.622616919020160e-03	6.766186e-01	1.094344e+01	2.289480e-02	-6.964402e-01	2.100371e+00
