time	V(ch1)	V(ch2)
Step Information: Rl=10  (Step: 1/46)
0.000000000000000e+00	1.256345e-02	8.253172e-12
7.045103241350901e-07	2.141594e-02	2.725919e-11
1.455988003212519e-06	3.085823e-02	6.423171e-11
2.958943361367379e-06	4.974163e-02	2.080902e-10
5.274251112078130e-06	7.882835e-02	6.862637e-10
7.679407839652155e-06	1.090395e-01	1.650679e-09
1.058139348770752e-05	1.454849e-01	3.760735e-09
1.400233639882412e-05	1.884382e-01	8.262171e-09
1.799974582477483e-05	2.386154e-01	1.797991e-08
2.241249768174357e-05	2.939866e-01	3.829228e-08
2.719016402934190e-05	3.539110e-01	8.109084e-08
3.218200101247523e-05	4.164893e-01	1.701489e-07
3.734417798413413e-05	4.811623e-01	3.571172e-07
4.259051584316148e-05	5.468374e-01	7.477927e-07
4.790584222218107e-05	6.133040e-01	1.568534e-06
5.325312876134810e-05	6.800617e-01	3.287731e-06
5.863593490385567e-05	7.470825e-01	6.896046e-06
6.404879384879044e-05	8.141549e-01	1.444468e-05
6.951707683896209e-05	8.813127e-01	3.020633e-05
7.508115271628171e-05	9.485295e-01	6.289666e-05
8.083955318015444e-05	1.016104e+00	1.302308e-04
8.696923298107101e-05	1.084812e+00	2.676235e-04
9.383451165169596e-05	1.157081e+00	5.490448e-04
1.020929874643726e-04	1.237864e+00	1.139310e-03
1.130522286584382e-04	1.337365e+00	2.454217e-03
1.296541553072762e-04	1.478146e+00	5.732808e-03
1.533320169218658e-04	1.668486e+00	1.304854e-02
1.885825364854647e-04	1.941251e+00	2.888194e-02
2.470553483826395e-04	2.379167e+00	6.442897e-02
3.056490983826395e-04	2.804130e+00	1.072882e-01
3.642428483826395e-04	3.214890e+00	1.535333e-01
4.228365983826395e-04	3.609349e+00	2.008610e-01
4.814303483826395e-04	3.985807e+00	2.478840e-01
5.400240983826394e-04	4.342359e+00	2.937122e-01
5.986178483826395e-04	4.677151e+00	3.377452e-01
6.572115983826395e-04	4.988452e+00	3.795470e-01
7.158053483826396e-04	5.274646e+00	4.187773e-01
7.743990983826397e-04	5.534240e+00	4.551559e-01
8.329928483826397e-04	5.765875e+00	4.884439e-01
8.915865983826398e-04	5.968333e+00	5.184342e-01
9.501803483826398e-04	6.140544e+00	5.449461e-01
1.008774098382640e-03	6.281600e+00	5.678234e-01
1.067367848382640e-03	6.390748e+00	5.869333e-01
1.125961598382640e-03	6.467409e+00	6.021655e-01
1.184555348382640e-03	6.511171e+00	6.134327e-01
1.243149098382640e-03	6.521799e+00	6.206704e-01
1.301742848382640e-03	6.499229e+00	6.238373e-01
1.360336598382640e-03	6.443577e+00	6.229149e-01
1.418930348382640e-03	6.355131e+00	6.179079e-01
1.477524098382640e-03	6.234350e+00	6.088443e-01
1.536117848382640e-03	6.081866e+00	5.957748e-01
1.594711598382640e-03	5.898474e+00	5.787733e-01
1.653305348382641e-03	5.685128e+00	5.579361e-01
1.711899098382641e-03	5.442935e+00	5.333817e-01
1.770492848382641e-03	5.173142e+00	5.052512e-01
1.829086598382641e-03	4.877128e+00	4.737072e-01
1.887680348382641e-03	4.556386e+00	4.389346e-01
1.946274098382641e-03	4.212503e+00	4.011409e-01
2.004867848382641e-03	3.847121e+00	3.605575e-01
2.063461598382641e-03	3.461889e+00	3.174434e-01
2.122055348382641e-03	3.058348e+00	2.720928e-01
2.180649098382641e-03	2.637690e+00	2.248539e-01
2.239242848382641e-03	2.200056e+00	1.761801e-01
2.297836598382641e-03	1.740287e+00	1.268811e-01
2.347838422580525e-03	1.305585e+00	8.606835e-02
2.370948635024843e-03	1.057214e+00	6.892482e-02
2.386218533086545e-03	8.721139e-01	5.903105e-02
2.390675662366692e-03	8.168887e-01	5.640307e-02
2.398366320588144e-03	7.211272e-01	5.213412e-02
2.405317754701248e-03	6.343096e-01	4.855167e-02
2.415987784745997e-03	5.008032e-01	4.352148e-02
2.428136863850543e-03	3.486043e-01	3.842324e-02
2.445548903519614e-03	1.302578e-01	3.213177e-02
2.474655704522103e-03	-2.349694e-01	2.379511e-02
2.500651096119990e-03	-5.610160e-01	1.820501e-02
2.521411656948265e-03	-8.202642e-01	1.472419e-02
2.534563865142117e-03	-9.805900e-01	1.294114e-02
2.544263280562442e-03	-1.091694e+00	1.190619e-02
2.554321823897682e-03	-1.196630e+00	1.123203e-02
2.567510550685813e-03	-1.320444e+00	1.120735e-02
2.587237121569312e-03	-1.489352e+00	1.328409e-02
2.607996711393275e-03	-1.657249e+00	1.818784e-02
2.640795156577683e-03	-1.913728e+00	3.080842e-02
2.698384772138061e-03	-2.351225e+00	6.342812e-02
2.756978522138061e-03	-2.784494e+00	1.053817e-01
2.815572272138061e-03	-3.205566e+00	1.517173e-01
2.874166022138061e-03	-3.612216e+00	1.997706e-01
2.932759772138061e-03	-4.002654e+00	2.479599e-01
2.991353522138061e-03	-4.374889e+00	2.952873e-01
3.049947272138061e-03	-4.726951e+00	3.410909e-01
3.108541022138061e-03	-5.057021e+00	3.848974e-01
3.167134772138061e-03	-5.363361e+00	4.263406e-01
3.225728522138061e-03	-5.644383e+00	4.651201e-01
3.284322272138061e-03	-5.898592e+00	5.009795e-01
3.342916022138061e-03	-6.124664e+00	5.336946e-01
3.401509772138061e-03	-6.321383e+00	5.630684e-01
3.460103522138061e-03	-6.487721e+00	5.889279e-01
3.518697272138062e-03	-6.622775e+00	6.111227e-01
3.577291022138062e-03	-6.725837e+00	6.295251e-01
3.635884772138062e-03	-6.796338e+00	6.440296e-01
3.694478522138062e-03	-6.833910e+00	6.545532e-01
3.753072272138062e-03	-6.838332e+00	6.610359e-01
3.811666022138062e-03	-6.809587e+00	6.634401e-01
3.870259772138062e-03	-6.747802e+00	6.617515e-01
3.928853522138061e-03	-6.653312e+00	6.559788e-01
3.987447272138061e-03	-6.526594e+00	6.461536e-01
4.046041022138061e-03	-6.368321e+00	6.323305e-01
4.104634772138060e-03	-6.179307e+00	6.145866e-01
4.163228522138060e-03	-5.960550e+00	5.930215e-01
4.221822272138060e-03	-5.713173e+00	5.677569e-01
4.280416022138059e-03	-5.438470e+00	5.389363e-01
4.339009772138059e-03	-5.137839e+00	5.067247e-01
4.397603522138058e-03	-4.812823e+00	4.713083e-01
4.456197272138058e-03	-4.465037e+00	4.328950e-01
4.514791022138058e-03	-4.096194e+00	3.917151e-01
4.573384772138057e-03	-3.708010e+00	3.480235e-01
4.631978522138057e-03	-3.302180e+00	3.021045e-01
4.690572272138057e-03	-2.880165e+00	2.542841e-01
4.749166022138056e-03	-2.442854e+00	2.049591e-01
4.807759772138056e-03	-1.988582e+00	1.547177e-01
4.866353522138055e-03	-1.505556e+00	1.048358e-01
4.899130523948557e-03	-1.191455e+00	7.854656e-02
4.913488339613145e-03	-1.027066e+00	6.812316e-02
4.923806456285729e-03	-9.009340e-01	6.134428e-02
4.928338224151676e-03	-8.446029e-01	5.857063e-02
4.935699404597456e-03	-7.525898e-01	5.432227e-02
4.942691189261888e-03	-6.648897e-01	5.056920e-02
4.952182198039490e-03	-5.456664e-01	4.588242e-02
4.963461702567399e-03	-4.038618e-01	4.087145e-02
4.980303467505338e-03	-1.921048e-01	3.438094e-02
5.012239798650011e-03	2.091793e-01	2.471546e-02
5.036511083205776e-03	5.135337e-01	1.925115e-02
5.057822558946838e-03	7.795930e-01	1.547431e-02
5.071361190600074e-03	9.455636e-01	1.352048e-02
5.080904595962245e-03	1.056979e+00	1.239408e-02
5.091039275671929e-03	1.165606e+00	1.155345e-02
5.102043523712575e-03	1.271996e+00	1.123279e-02
5.120794381515905e-03	1.435915e+00	1.245336e-02
5.140344375320021e-03	1.595272e+00	1.617241e-02
5.168124699112744e-03	1.812871e+00	2.532513e-02
5.217903333314382e-03	2.190284e+00	5.037971e-02
5.273554040541775e-03	2.599957e+00	8.726780e-02
5.332147790541775e-03	3.018452e+00	1.315572e-01
5.390741540541775e-03	3.421659e+00	1.782809e-01
5.449335290541774e-03	3.808045e+00	2.255017e-01
5.507929040541774e-03	4.175617e+00	2.720228e-01
5.566522790541773e-03	4.522468e+00	3.170764e-01
5.625116540541773e-03	4.846756e+00	3.601347e-01
5.683710290541773e-03	5.146834e+00	4.008043e-01
5.742304040541772e-03	5.421103e+00	4.387721e-01
5.800897790541772e-03	5.668162e+00	4.737766e-01
5.859491540541772e-03	5.886678e+00	5.055935e-01
5.918085290541771e-03	6.075535e+00	5.340276e-01
5.976679040541771e-03	6.233697e+00	5.589097e-01
6.035272790541770e-03	6.360364e+00	5.800938e-01
6.093866540541770e-03	6.454823e+00	5.974576e-01
6.152460290541770e-03	6.516608e+00	6.109011e-01
6.211054040541769e-03	6.545348e+00	6.203474e-01
6.269647790541769e-03	6.540923e+00	6.257425e-01
6.328241540541769e-03	6.503314e+00	6.270552e-01
6.386835290541768e-03	6.432751e+00	6.242777e-01
6.445429040541768e-03	6.329563e+00	6.174251e-01
6.504022790541767e-03	6.194326e+00	6.065359e-01
6.562616540541767e-03	6.027708e+00	5.916710e-01
6.621210290541767e-03	5.830615e+00	5.729146e-01
6.679804040541766e-03	5.604033e+00	5.503730e-01
6.738397790541766e-03	5.349174e+00	5.241749e-01
6.796991540541765e-03	5.067308e+00	4.944709e-01
6.855585290541765e-03	4.759908e+00	4.614337e-01
6.914179040541765e-03	4.428475e+00	4.252579e-01
6.972772790541764e-03	4.074668e+00	3.861612e-01
7.031366540541764e-03	3.700110e+00	3.443863e-01
7.089960290541764e-03	3.306466e+00	3.002058e-01
7.148554040541763e-03	2.895150e+00	2.539327e-01
7.207147790541763e-03	2.467109e+00	2.059483e-01
7.265741540541762e-03	2.020980e+00	1.568084e-01
7.324335290541762e-03	1.547166e+00	1.076521e-01
7.357887706110325e-03	1.236976e+00	8.078177e-02
7.375359667540469e-03	1.042742e+00	6.806687e-02
7.390403585085828e-03	8.596392e-01	5.841861e-02
7.396781540922274e-03	7.804027e-01	5.473081e-02
7.402977729448575e-03	7.031365e-01	5.136748e-02
7.411000402844006e-03	6.028227e-01	4.731481e-02
7.424240594118101e-03	4.370266e-01	4.130657e-02
7.445838667114855e-03	1.661640e-01	3.307900e-02
7.487565394468482e-03	-3.574731e-01	2.143078e-02
7.519620114692504e-03	-7.588948e-01	1.539982e-02
7.534974894426705e-03	-9.478433e-01	1.321357e-02
7.546859780413735e-03	-1.085602e+00	1.190148e-02
7.557633320285469e-03	-1.198178e+00	1.117826e-02
7.570085486144729e-03	-1.315218e+00	1.114246e-02
7.589802135188233e-03	-1.484356e+00	1.314941e-02
7.610428467273819e-03	-1.651338e+00	1.794267e-02
7.642787480150835e-03	-1.904414e+00	3.024356e-02
7.700723607094576e-03	-2.344432e+00	6.284014e-02
7.759292809974880e-03	-2.777156e+00	1.046582e-01
7.817886559974880e-03	-3.197829e+00	1.509036e-01
7.876480309974881e-03	-3.603924e+00	1.988783e-01
7.935074059974881e-03	-3.993784e+00	2.469905e-01
7.993667809974882e-03	-4.365296e+00	2.942369e-01
8.052261559974882e-03	-4.716619e+00	3.399532e-01
8.110855309974883e-03	-5.045814e+00	3.836645e-01
8.169449059974883e-03	-5.351273e+00	4.250045e-01
8.228042809974884e-03	-5.631287e+00	4.636727e-01
8.286636559974884e-03	-5.884493e+00	4.994130e-01
8.345230309974885e-03	-6.109447e+00	5.320021e-01
8.403824059974885e-03	-6.305066e+00	5.612433e-01
8.462417809974886e-03	-6.470201e+00	5.869643e-01
8.521011559974886e-03	-6.604081e+00	6.090156e-01
8.579605309974887e-03	-6.705881e+00	6.272702e-01
8.638199059974887e-03	-6.775162e+00	6.416234e-01
8.696792809974888e-03	-6.811441e+00	6.519933e-01
8.755386559974888e-03	-6.814625e+00	6.583204e-01
8.813980309974889e-03	-6.784581e+00	6.605682e-01
8.872574059974889e-03	-6.721569e+00	6.587234e-01
8.931167809974890e-03	-6.625804e+00	6.527954e-01
8.989761559974890e-03	-6.497894e+00	6.428169e-01
9.048355309974890e-03	-6.338397e+00	6.288432e-01
9.106949059974891e-03	-6.148253e+00	6.109526e-01
9.165542809974891e-03	-5.928347e+00	5.892454e-01
9.224136559974892e-03	-5.679926e+00	5.638443e-01
9.282730309974892e-03	-5.404169e+00	5.348936e-01
9.341324059974893e-03	-5.102600e+00	5.025594e-01
9.399917809974893e-03	-4.776642e+00	4.670289e-01
9.458511559974894e-03	-4.428035e+00	4.285110e-01
9.517105309974894e-03	-4.058368e+00	3.872373e-01
9.575699059974895e-03	-3.669473e+00	3.434643e-01
9.634292809974895e-03	-3.262910e+00	2.974788e-01
9.692886559974896e-03	-2.840225e+00	2.496106e-01
9.751480309974896e-03	-2.402089e+00	2.002655e-01
9.810074059974897e-03	-1.946542e+00	1.500599e-01
9.868667809974897e-03	-1.459103e+00	1.004209e-01
9.900016265574983e-03	-1.149721e+00	7.566498e-02
9.912135134666737e-03	-1.008318e+00	6.703241e-02
9.920058896113007e-03	-9.113598e-01	6.184547e-02
9.925091668888782e-03	-8.488583e-01	5.874861e-02
9.932204251470107e-03	-7.600282e-01	5.462656e-02
9.939345266133602e-03	-6.704776e-01	5.077494e-02
9.948538023642175e-03	-5.550562e-01	4.621041e-02
9.959680738470726e-03	-4.149848e-01	4.122157e-02
9.974896347406672e-03	-2.237179e-01	3.526184e-02
9.995539913182892e-03	3.577212e-02	2.851885e-02
1.002768624692883e-02	4.392312e-01	2.045644e-02
1.004761654899026e-02	6.886331e-01	1.667137e-02
1.006785645514062e-02	9.383269e-01	1.360466e-02
1.007862526393049e-02	1.064037e+00	1.233755e-02
1.008962357981844e-02	1.180716e+00	1.147947e-02
1.010112145399658e-02	1.290262e+00	1.126199e-02
1.012024305269860e-02	1.455647e+00	1.278064e-02
1.013991608979339e-02	1.615268e+00	1.682868e-02
1.017087464644011e-02	1.856848e+00	2.768582e-02
1.022015673308267e-02	2.229533e+00	5.354380e-02
1.027875048308267e-02	2.659887e+00	9.321360e-02
1.033734423308267e-02	3.077015e+00	1.380594e-01
1.039593798308267e-02	3.478748e+00	1.850172e-01
1.045453173308267e-02	3.863474e+00	2.322837e-01
1.051312548308267e-02	4.229228e+00	2.787372e-01
1.057171923308267e-02	4.574080e+00	3.236518e-01
1.063031298308267e-02	4.896239e+00	3.665224e-01
1.068890673308267e-02	5.194028e+00	4.069686e-01
1.074750048308267e-02	5.465896e+00	4.446847e-01
1.080609423308267e-02	5.710417e+00	4.794145e-01
1.086468798308267e-02	5.926307e+00	5.109370e-01
1.092328173308267e-02	6.112427e+00	5.390599e-01
1.098187548308267e-02	6.267792e+00	5.636163e-01
1.104046923308267e-02	6.391576e+00	5.844628e-01
1.109906298308267e-02	6.483121e+00	6.014786e-01
1.115765673308267e-02	6.541938e+00	6.145662e-01
1.121625048308268e-02	6.567708e+00	6.236507e-01
1.127484423308268e-02	6.560291e+00	6.286799e-01
1.133343798308268e-02	6.519719e+00	6.296251e-01
1.139203173308268e-02	6.446201e+00	6.264802e-01
1.145062548308268e-02	6.340119e+00	6.192626e-01
1.150921923308268e-02	6.202026e+00	6.080125e-01
1.156781298308268e-02	6.032643e+00	5.927932e-01
1.162640673308268e-02	5.832853e+00	5.736906e-01
1.168500048308268e-02	5.603693e+00	5.508130e-01
1.174359423308268e-02	5.346349e+00	5.242910e-01
1.180218798308268e-02	5.062144e+00	4.942771e-01
1.186078173308268e-02	4.752522e+00	4.609457e-01
1.191937548308268e-02	4.419034e+00	4.244933e-01
1.197796923308268e-02	4.063309e+00	3.851394e-01
1.203656298308268e-02	3.687011e+00	3.431286e-01
1.209515673308268e-02	3.291772e+00	2.987355e-01
1.215375048308268e-02	2.879030e+00	2.522759e-01
1.221234423308268e-02	2.449664e+00	2.041358e-01
1.227093798308268e-02	2.002179e+00	1.548834e-01
1.232953173308268e-02	1.525889e+00	1.057210e-01
1.236414140209620e-02	1.199827e+00	7.823441e-02
1.237855995255274e-02	1.036795e+00	6.784046e-02
1.239099235726922e-02	8.856281e-01	5.979333e-02
1.239537479256345e-02	8.313395e-01	5.717599e-02
1.240283323132221e-02	7.384604e-01	5.297526e-02
1.240988607827604e-02	6.503283e-01	4.928411e-02
1.241989510602588e-02	5.250286e-01	4.447911e-02
1.243158765880618e-02	3.784678e-01	3.945351e-02
1.244796992180714e-02	1.729533e-01	3.334585e-02
1.247244785646164e-02	-1.342939e-01	2.591679e-02
1.251200457556296e-02	-6.304256e-01	1.718883e-02
1.253254390438574e-02	-8.858520e-01	1.395417e-02
1.254487690697653e-02	-1.033144e+00	1.242053e-02
1.255534637584946e-02	-1.147901e+00	1.149132e-02
1.256595976944399e-02	-1.252723e+00	1.108590e-02
1.258474015258003e-02	-1.419580e+00	1.209215e-02
1.260433876452764e-02	-1.581056e+00	1.561242e-02
1.263030627078260e-02	-1.786612e+00	2.384626e-02
1.267746876650199e-02	-2.148660e+00	4.688461e-02
1.273246534740154e-02	-2.559879e+00	8.284883e-02
1.279105909740154e-02	-2.986603e+00	1.272164e-01
1.284965284740154e-02	-3.399525e+00	1.744954e-01
1.290824659740154e-02	-3.797099e+00	2.226225e-01
1.296684034740154e-02	-4.177329e+00	2.703241e-01
1.302543409740154e-02	-4.538181e+00	3.167876e-01
1.308402784740154e-02	-4.877786e+00	3.614566e-01
1.314262159740154e-02	-5.194363e+00	4.039178e-01
1.320121534740154e-02	-5.486270e+00	4.438416e-01
1.325980909740154e-02	-5.751966e+00	4.809522e-01
1.331840284740154e-02	-5.990062e+00	5.150115e-01
1.337699659740154e-02	-6.199287e+00	5.458106e-01
1.343559034740154e-02	-6.378545e+00	5.731661e-01
1.349418409740154e-02	-6.526869e+00	5.969179e-01
1.355277784740154e-02	-6.643479e+00	6.169287e-01
1.361137159740154e-02	-6.727739e+00	6.330835e-01
1.366996534740154e-02	-6.779206e+00	6.452899e-01
1.372855909740154e-02	-6.797587e+00	6.534780e-01
1.378715284740155e-02	-6.782790e+00	6.576010e-01
1.384574659740155e-02	-6.734871e+00	6.576347e-01
1.390434034740155e-02	-6.654089e+00	6.535782e-01
1.396293409740155e-02	-6.540852e+00	6.454535e-01
1.402152784740155e-02	-6.395761e+00	6.333057e-01
1.408012159740155e-02	-6.219560e+00	6.172025e-01
1.413871534740155e-02	-6.013182e+00	5.972342e-01
1.419730909740155e-02	-5.777687e+00	5.735133e-01
1.425590284740155e-02	-5.514308e+00	5.461745e-01
1.431449659740155e-02	-5.224391e+00	5.153739e-01
1.437309034740155e-02	-4.909426e+00	4.812890e-01
1.443168409740155e-02	-4.570990e+00	4.441190e-01
1.449027784740155e-02	-4.210763e+00	4.040852e-01
1.454887159740155e-02	-3.830449e+00	3.614326e-01
1.460746534740155e-02	-3.431761e+00	3.164338e-01
1.466605909740155e-02	-3.016247e+00	2.693979e-01
1.472465284740155e-02	-2.585056e+00	2.206922e-01
1.478324659740155e-02	-2.137651e+00	1.708214e-01
1.484184034740155e-02	-1.668184e+00	1.206918e-01
1.488743167704993e-02	-1.257666e+00	8.331865e-02
1.490625896862376e-02	-1.049157e+00	6.933608e-02
1.492500713992093e-02	-8.192224e-01	5.729776e-02
1.493036424812822e-02	-7.522376e-01	5.424220e-02
1.493694642114038e-02	-6.697356e-01	5.070708e-02
1.494513172594911e-02	-5.669619e-01	4.662815e-02
1.495745408767546e-02	-4.121274e-01	4.109297e-02
1.497525317338337e-02	-1.883773e-01	3.422733e-02
1.500876099385542e-02	2.325994e-01	2.420091e-02
1.503975725754658e-02	6.211249e-01	1.757287e-02
1.505954621920798e-02	8.671010e-01	1.436828e-02
1.507276841329189e-02	1.025451e+00	1.266600e-02
1.508315790580199e-02	1.139785e+00	1.169621e-02
1.509368441746146e-02	1.244237e+00	1.122916e-02
1.511413267063962e-02	1.425266e+00	1.228958e-02
1.513316667827327e-02	1.581265e+00	1.573155e-02
1.516070060658860e-02	1.797705e+00	2.452618e-02
1.520427473848117e-02	2.129683e+00	4.569481e-02
1.526153994698203e-02	2.553733e+00	8.265012e-02
1.532013369698203e-02	2.974941e+00	1.265801e-01
1.537872744698203e-02	3.381184e+00	1.732638e-01
1.543732119698203e-02	3.771052e+00	2.206478e-01
1.549591494698203e-02	4.142522e+00	2.674657e-01
1.555450869698203e-02	4.493666e+00	3.129115e-01
1.561310244698203e-02	4.822608e+00	3.564363e-01
1.567169619698203e-02	5.127687e+00	3.976336e-01
1.573028994698203e-02	5.407267e+00	4.361818e-01
1.578888369698202e-02	5.659930e+00	4.718128e-01
1.584747744698202e-02	5.884302e+00	5.042971e-01
1.590607119698202e-02	6.079248e+00	5.334349e-01
1.596466494698202e-02	6.243690e+00	5.590522e-01
1.602325869698202e-02	6.376801e+00	5.809989e-01
1.608185244698202e-02	6.477827e+00	5.991478e-01
1.614044619698202e-02	6.546275e+00	6.133946e-01
1.619903994698202e-02	6.581728e+00	6.236575e-01
1.625763369698201e-02	6.584043e+00	6.298781e-01
1.631622744698201e-02	6.553152e+00	6.320204e-01
1.637482119698201e-02	6.489259e+00	6.300719e-01
1.643341494698201e-02	6.392650e+00	6.240431e-01
1.649200869698201e-02	6.263875e+00	6.139674e-01
1.655060244698201e-02	6.103559e+00	5.999014e-01
1.660919619698201e-02	5.912584e+00	5.819242e-01
1.666778994698201e-02	5.691897e+00	5.601377e-01
1.672638369698200e-02	5.442689e+00	5.346659e-01
1.678497744698200e-02	5.166197e+00	5.056548e-01
1.684357119698200e-02	4.863880e+00	4.732721e-01
1.690216494698200e-02	4.537211e+00	4.377079e-01
1.696075869698200e-02	4.187851e+00	3.991744e-01
1.701935244698200e-02	3.817416e+00	3.579081e-01
1.707794619698200e-02	3.427610e+00	3.141734e-01
1.713653994698200e-02	3.019919e+00	2.682711e-01
1.719513369698199e-02	2.595526e+00	2.205589e-01
1.725372744698199e-02	2.154334e+00	1.715097e-01
1.731232119698199e-02	1.690017e+00	1.220096e-01
1.735492646486846e-02	1.316519e+00	8.710650e-02
1.737850357011361e-02	1.064442e+00	6.950319e-02
1.739289495548539e-02	8.902866e-01	6.006878e-02
1.739761880925336e-02	8.317679e-01	5.723960e-02
1.740435967168481e-02	7.478092e-01	5.342548e-02
